time;V(Net-_D1-A_);V(U_a);
0;2.50013;0.0202473;
1e-08;2.50006;0.0203114;
2e-08;2.49999;0.0203117;
4e-08;2.49984;0.0203118;
8e-08;2.49955;0.0203118;
1.6e-07;2.49897;0.0203118;
3.2e-07;2.49782;0.0203118;
6.4e-07;2.4955;0.0203118;
1.28e-06;2.49088;0.0203118;
2.28e-06;2.48368;0.0203118;
3.28e-06;2.47651;0.0203118;
4.28e-06;2.46937;0.0203118;
5.28e-06;2.46225;0.0203118;
6.28e-06;2.45517;0.0203118;
7.28e-06;2.44811;0.0203117;
8.28e-06;2.44108;0.0203117;
9.28e-06;2.43407;0.0203117;
1.028e-05;2.4271;0.0203117;
1.128e-05;2.42015;0.0203117;
1.228e-05;2.41323;0.0203117;
1.328e-05;2.40633;0.0203117;
1.428e-05;2.39947;0.0203117;
1.528e-05;2.39263;0.0203117;
1.628e-05;2.38581;0.0203117;
1.728e-05;2.37903;0.0203117;
1.828e-05;2.37227;0.0203117;
1.928e-05;2.36553;0.0203117;
2.028e-05;2.35883;0.0203117;
2.128e-05;2.35215;0.0203117;
2.228e-05;2.34549;0.0203117;
2.328e-05;2.33886;0.0203117;
2.428e-05;2.33226;0.0203117;
2.528e-05;2.32568;0.0203117;
2.628e-05;2.31913;0.0203117;
2.728e-05;2.31261;0.0203117;
2.828e-05;2.30611;0.0203117;
2.928e-05;2.29964;0.0203117;
3.028e-05;2.29319;0.0203117;
3.128e-05;2.28676;0.0203117;
3.228e-05;2.28037;0.0203117;
3.328e-05;2.27399;0.0203116;
3.428e-05;2.26764;0.0203116;
3.528e-05;2.26132;0.0203116;
3.628e-05;2.25502;0.0203116;
3.728e-05;2.24875;0.0203116;
3.828e-05;2.2425;0.0203116;
3.928e-05;2.23627;0.0203116;
4.028e-05;2.23007;0.0203116;
4.128e-05;2.2239;0.0203116;
4.228e-05;2.21775;0.0203116;
4.328e-05;2.21162;0.0203116;
4.428e-05;2.20551;0.0203116;
4.528e-05;2.19943;0.0203116;
4.628e-05;2.19338;0.0203116;
4.728e-05;2.18734;0.0203116;
4.828e-05;2.18134;0.0203116;
4.928e-05;2.17535;0.0203116;
5.028e-05;2.16939;0.0203116;
5.128e-05;2.16345;0.0203116;
5.228e-05;2.15753;0.0203116;
5.328e-05;2.15164;0.0203116;
5.428e-05;2.14577;0.0203116;
5.528e-05;2.13993;0.0203116;
5.628e-05;2.1341;0.0203116;
5.728e-05;2.1283;0.0203116;
5.828e-05;2.12252;0.0203116;
5.928e-05;2.11677;0.0203116;
6.028e-05;2.11104;0.0203116;
6.128e-05;2.10533;0.0203116;
6.228e-05;2.09964;0.0203115;
6.328e-05;2.09397;0.0203115;
6.428e-05;2.08833;0.0203115;
6.528e-05;2.08271;0.0203115;
6.628e-05;2.07711;0.0203115;
6.728e-05;2.07153;0.0203115;
6.828e-05;2.06597;0.0203115;
6.928e-05;2.06044;0.0203115;
7.028e-05;2.05493;0.0203115;
7.128e-05;2.04944;0.0203115;
7.228e-05;2.04397;0.0203115;
7.328e-05;2.03852;0.0203115;
7.428e-05;2.03309;0.0203115;
7.528e-05;2.02768;0.0203115;
7.628e-05;2.0223;0.0203115;
7.728e-05;2.01694;0.0203115;
7.828e-05;2.01159;0.0203115;
7.928e-05;2.00627;0.0203115;
8.028e-05;2.00097;0.0203115;
8.128e-05;1.99569;0.0203115;
8.228e-05;1.99043;0.0203115;
8.328e-05;1.98519;0.0203115;
8.428e-05;1.97997;0.0203115;
8.528e-05;1.97478;0.0203115;
8.628e-05;1.9696;0.0203115;
8.728e-05;1.96444;0.0203115;
8.828e-05;1.9593;0.0203115;
8.928e-05;1.95419;0.0203115;
9.028e-05;1.94909;0.0203115;
9.128e-05;1.95279;11.1303;
9.15158e-05;1.95574;12.3376;
9.16545e-05;1.95747;12.1586;
9.17101e-05;1.95817;12.2745;
9.17518e-05;1.95869;12.2202;
9.17774e-05;1.95901;12.2408;
9.17969e-05;1.95925;12.2345;
9.18144e-05;1.95947;12.2369;
9.18324e-05;1.9597;12.2359;
9.18521e-05;1.95994;12.2363;
9.1873e-05;1.96021;12.2362;
9.18953e-05;1.96049;12.2362;
9.19192e-05;1.96078;12.2362;
9.19442e-05;1.9611;12.2361;
9.19701e-05;1.96142;12.2362;
9.19962e-05;1.96175;12.2361;
9.20244e-05;1.9621;12.2362;
9.20538e-05;1.96247;12.2361;
9.20857e-05;1.96287;12.2362;
9.21204e-05;1.9633;12.2362;
9.21584e-05;1.96377;12.2362;
9.22006e-05;1.9643;12.2362;
9.22478e-05;1.96489;12.2362;
9.23011e-05;1.96556;12.2362;
9.23616e-05;1.96631;12.2362;
9.24306e-05;1.96718;12.2362;
9.25117e-05;1.96819;12.2362;
9.26177e-05;1.96951;12.2362;
9.27632e-05;1.97133;12.2362;
9.29816e-05;1.97406;12.2361;
9.33455e-05;1.9786;12.2361;
9.40242e-05;1.98707;12.2361;
9.48708e-05;1.99762;12.2361;
9.58708e-05;2.01007;12.236;
9.68708e-05;2.0225;12.236;
9.77913e-05;2.03393;12.2359;
9.87628e-05;2.04597;12.2359;
9.97628e-05;2.05835;12.2359;
0.000100763;2.07072;12.2358;
0.000101763;2.08307;12.2358;
0.000102763;2.09541;12.2357;
0.000103763;2.10772;12.2357;
0.000104763;2.12002;12.2357;
0.000105763;2.13231;12.2356;
0.000106763;2.14458;12.2356;
0.000107763;2.15683;12.2355;
0.000108763;2.16906;12.2355;
0.000109763;2.18128;12.2354;
0.000110763;2.19349;12.2354;
0.000111763;2.20567;12.2354;
0.000112763;2.21784;12.2353;
0.000113763;2.23;12.2353;
0.000114763;2.24214;12.2352;
0.000115763;2.25426;12.2352;
0.000116763;2.26636;12.2352;
0.000117763;2.27845;12.2351;
0.000118763;2.29053;12.2351;
0.000119763;2.30259;12.235;
0.000120763;2.31463;12.235;
0.000121763;2.32665;12.2349;
0.000122763;2.33866;12.2349;
0.000123763;2.35066;12.2349;
0.000124763;2.36263;12.2348;
0.000125763;2.3746;12.2348;
0.000126763;2.38654;12.2347;
0.000127763;2.39847;12.2347;
0.000128763;2.41039;12.2347;
0.000129763;2.42229;12.2346;
0.000130763;2.43417;12.2346;
0.000131763;2.44604;12.2345;
0.000132763;2.45789;12.2345;
0.000133763;2.46972;12.2345;
0.000134763;2.48154;12.2344;
0.000135763;2.49335;12.2344;
0.000136763;2.50513;12.2343;
0.000137763;2.51691;12.2343;
0.000138763;2.52866;12.2342;
0.000139763;2.54041;12.2342;
0.000140763;2.55213;12.2342;
0.000141763;2.56384;12.2341;
0.000142763;2.57554;12.2341;
0.000143763;2.58722;12.234;
0.000144763;2.59888;12.234;
0.000145763;2.61053;12.234;
0.000146763;2.62216;12.2339;
0.000147763;2.63378;12.2339;
0.000148763;2.64538;12.2338;
0.000149763;2.65696;12.2338;
0.000150763;2.66854;12.2338;
0.000151763;2.68009;12.2337;
0.000152763;2.69163;12.2337;
0.000153763;2.70316;12.2336;
0.000154763;2.71467;12.2336;
0.000155763;2.72616;12.2335;
0.000156763;2.73764;12.2335;
0.000157763;2.7491;12.2335;
0.000158763;2.76055;12.2334;
0.000159763;2.77199;12.2334;
0.000160763;2.7834;12.2333;
0.000161763;2.79481;12.2333;
0.000162763;2.80619;12.2333;
0.000163763;2.81757;12.2332;
0.000164763;2.82892;12.2332;
0.000165763;2.84027;12.2331;
0.000166763;2.85159;12.2331;
0.000167763;2.86291;12.2331;
0.000168763;2.8742;12.233;
0.000169763;2.88549;12.233;
0.000170763;2.89675;12.2329;
0.000171763;2.90801;12.2329;
0.000172763;2.91924;12.2328;
0.000173763;2.93047;12.2328;
0.000174763;2.94167;12.2328;
0.000175763;2.95287;12.2327;
0.000176763;2.96404;12.2327;
0.000177763;2.97521;12.2326;
0.000178763;2.98636;12.2326;
0.000179763;2.99749;12.2326;
0.000180763;3.00861;12.2325;
0.000181763;3.01971;12.2325;
0.000182763;3.0308;12.2324;
0.000183763;3.04188;12.2324;
0.000184763;3.05293;12.2323;
0.000185763;3.06398;12.2323;
0.000186763;3.07501;12.2323;
0.000187763;3.08603;12.2322;
0.000188763;3.09703;12.2322;
0.000189763;3.10801;12.2322;
0.000190763;3.11898;12.2321;
0.000191763;3.12994;12.2321;
0.000192763;3.14088;12.232;
0.000193763;3.15181;12.232;
0.000194763;3.16273;12.2319;
0.000195763;3.17363;12.2319;
0.000196763;3.18451;12.2319;
0.000197763;3.19538;12.2318;
0.000198763;3.20624;12.2318;
0.000199763;3.21708;12.2317;
0.000200763;3.2279;12.2317;
0.000201763;3.23872;12.2317;
0.000202763;3.24952;12.2316;
0.000203763;3.2603;12.2316;
0.000204763;3.27107;12.2315;
0.000205763;3.28182;12.2315;
0.000206763;3.29256;12.2314;
0.000207763;3.30329;12.2314;
0.000208763;3.314;12.2314;
0.000209763;3.3247;12.2313;
0.000210763;3.33539;12.2313;
0.000211763;3.34606;12.2312;
0.000212763;3.35671;12.2312;
0.000213763;3.36735;12.2312;
0.000214763;3.37798;12.2311;
0.000215763;3.38859;12.2311;
0.000216763;3.39919;12.231;
0.000217763;3.40978;12.231;
0.000218763;3.42035;12.2309;
0.000219763;3.43091;12.2309;
0.000220763;3.44145;12.2309;
0.000221763;3.45198;12.2308;
0.000222763;3.46249;12.2308;
0.000223763;3.47299;12.2308;
0.000224763;3.48348;12.2307;
0.000225763;3.49395;12.2307;
0.000226763;3.50441;12.2306;
0.000227763;3.51486;12.2306;
0.000228763;3.52529;12.2305;
0.000229763;3.53571;12.2305;
0.000230763;3.54611;12.2305;
0.000231763;3.5565;12.2304;
0.000232763;3.56688;12.2304;
0.000233763;3.57724;12.2303;
0.000234763;3.58759;12.2303;
0.000235763;3.59792;12.2303;
0.000236763;3.60824;12.2302;
0.000237763;3.61855;12.2302;
0.000238763;3.62885;12.2301;
0.000239763;3.63913;12.2301;
0.000240763;3.64939;12.23;
0.000241763;3.65964;12.23;
0.000242763;3.66988;12.23;
0.000243763;3.68011;12.2299;
0.000244763;3.69032;12.2299;
0.000245763;3.70052;12.2299;
0.000246763;3.7107;12.2298;
0.000247763;3.72088;12.2298;
0.000248763;3.73103;12.2297;
0.000249763;3.74118;12.2297;
0.000250763;3.75131;12.2296;
0.000251763;3.76143;12.2296;
0.000252763;3.77153;12.2296;
0.000253763;3.78162;12.2295;
0.000254763;3.7917;12.2295;
0.000255763;3.80176;12.2294;
0.000256763;3.81181;12.2294;
0.000257763;3.82185;12.2294;
0.000258763;3.83187;12.2293;
0.000259763;3.84188;12.2293;
0.000260763;3.85188;12.2292;
0.000261763;3.86187;12.2292;
0.000262763;3.87184;12.2291;
0.000263763;3.88179;12.2291;
0.000264763;3.89174;12.2291;
0.000265763;3.90167;12.229;
0.000266763;3.91159;12.229;
0.000267763;3.92149;12.229;
0.000268763;3.93138;12.2289;
0.000269763;3.94126;12.2289;
0.000270763;3.95113;12.2288;
0.000271763;3.96098;12.2288;
0.000272763;3.97082;12.2287;
0.000273763;3.98064;12.2287;
0.000274763;3.99046;12.2286;
0.000275763;4.00026;12.2286;
0.000276763;4.01004;12.2286;
0.000277763;4.01982;12.2285;
0.000278763;4.02958;12.2285;
0.000279763;4.03933;12.2285;
0.000280763;4.04906;12.2284;
0.000281763;4.05878;12.2284;
0.000282763;4.06849;12.2283;
0.000283763;4.07819;12.2283;
0.000284763;4.08787;12.2282;
0.000285763;4.09754;12.2282;
0.000286763;4.1072;12.2282;
0.000287763;4.11685;12.2281;
0.000288763;4.12648;12.2281;
0.000289763;4.1361;12.2281;
0.000290763;4.1457;12.228;
0.000291763;4.1553;12.228;
0.000292763;4.16488;12.2279;
0.000293763;4.17445;12.2279;
0.000294763;4.184;12.2278;
0.000295763;4.19355;12.2278;
0.000296763;4.20308;12.2277;
0.000297763;4.21259;12.2277;
0.000298763;4.2221;12.2277;
0.000299763;4.23159;12.2276;
0.000300763;4.24107;12.2276;
0.000301763;4.25054;12.2276;
0.000302763;4.25999;12.2275;
0.000303763;4.26943;12.2275;
0.000304763;4.27886;12.2274;
0.000305763;4.28828;12.2274;
0.000306763;4.29768;12.2273;
0.000307763;4.30708;12.2273;
0.000308763;4.31646;12.2273;
0.000309763;4.32582;12.2272;
0.000310763;4.33518;12.2272;
0.000311763;4.34452;12.2272;
0.000312763;4.35385;12.2271;
0.000313763;4.36317;12.2271;
0.000314763;4.37247;12.227;
0.000315763;4.38177;12.227;
0.000316763;4.39105;12.2269;
0.000317763;4.40031;12.2269;
0.000318763;4.40957;12.2268;
0.000319763;4.41881;12.2268;
0.000320763;4.42804;12.2268;
0.000321763;4.43726;12.2267;
0.000322763;4.44647;12.2267;
0.000323763;4.45566;12.2267;
0.000324763;4.46485;12.2266;
0.000325763;4.47402;12.2266;
0.000326763;4.48318;12.2265;
0.000327763;4.49232;12.2265;
0.000328763;4.50145;12.2264;
0.000329763;4.51058;12.2264;
0.000330763;4.51969;12.2263;
0.000331763;4.52878;12.2263;
0.000332763;4.53787;12.2263;
0.000333763;4.54694;12.2263;
0.000334763;4.556;12.2262;
0.000335763;4.56505;12.2262;
0.000336763;4.57409;12.2261;
0.000337763;4.58311;12.2261;
0.000338763;4.59213;12.226;
0.000339763;4.60113;12.226;
0.000340763;4.61012;12.2259;
0.000341763;4.61909;12.2259;
0.000342763;4.62806;12.2259;
0.000343763;4.63701;12.2258;
0.000344763;4.64595;12.2258;
0.000345763;4.65488;12.2258;
0.000346763;4.6638;12.2257;
0.000347763;4.67271;12.2257;
0.000348763;4.6816;12.2256;
0.000349763;4.69049;12.2256;
0.000350763;4.69936;12.2255;
0.000351763;4.70821;12.2255;
0.000352763;4.71706;12.2254;
0.000353763;4.7259;12.2254;
0.000354763;4.73472;12.2254;
0.000355763;4.74353;12.2254;
0.000356763;4.75233;12.2253;
0.000357763;4.76112;12.2253;
0.000358763;4.7699;12.2252;
0.000359763;4.77866;12.2252;
0.000360763;4.78742;12.2251;
0.000361763;4.79616;12.2251;
0.000362763;4.80489;12.225;
0.000363763;4.81361;12.225;
0.000364763;4.82232;12.225;
0.000365763;4.83101;12.2249;
0.000366763;4.83969;12.2249;
0.000367763;4.84837;12.2249;
0.000368763;4.85703;12.2248;
0.000369763;4.86568;12.2248;
0.000370763;4.87432;12.2247;
0.000371763;4.88294;12.2247;
0.000372763;4.89156;12.2246;
0.000373763;4.90016;12.2246;
0.000374763;4.90875;12.2245;
0.000375763;4.91734;12.2245;
0.000376763;4.9259;12.2245;
0.000377763;4.93446;12.2245;
0.000378763;4.94301;12.2244;
0.000379763;4.95155;12.2244;
0.000380763;4.96007;12.2243;
0.000381763;4.96858;12.2243;
0.000382763;4.97708;12.2242;
0.000383763;4.98557;12.2242;
0.000384763;4.99405;12.2241;
0.000385763;5.00252;12.2241;
0.000386763;5.01098;12.2241;
0.000387763;5.01942;12.2241;
0.000388763;5.02786;12.224;
0.000389763;5.03628;12.224;
0.000390763;5.04469;12.2239;
0.000391763;5.05309;12.2239;
0.000392763;5.06148;12.2238;
0.000393763;5.06986;12.2238;
0.000394763;5.07823;12.2237;
0.000395763;5.08658;12.2237;
0.000396763;5.09493;12.2236;
0.000397763;5.10326;12.2236;
0.000398763;5.11158;12.2236;
0.000399763;5.1199;12.2236;
0.000400763;5.1282;12.2235;
0.000401763;5.13649;12.2235;
0.000402763;5.14477;12.2234;
0.000403763;5.15303;12.2234;
0.000404763;5.16129;12.2233;
0.000405763;5.16954;12.2233;
0.000406763;5.17777;12.2232;
0.000407763;5.18599;12.2232;
0.000408763;5.19421;12.2232;
0.000409763;5.20241;12.2232;
0.000410763;5.2106;12.2231;
0.000411763;5.21878;12.2231;
0.000412763;5.22695;12.223;
0.000413763;5.23511;12.223;
0.000414763;5.24326;12.2229;
0.000415763;5.25139;12.2229;
0.000416763;5.25952;12.2228;
0.000417763;5.26764;12.2228;
0.000418763;5.27574;12.2227;
0.000419763;5.28383;12.2227;
0.000420763;5.29192;12.2227;
0.000421763;5.29999;12.2227;
0.000422763;5.30805;12.2226;
0.000423763;5.3161;12.2226;
0.000424763;5.32414;12.2225;
0.000425763;5.33217;12.2225;
0.000426763;5.34019;12.2224;
0.000427763;5.3482;12.2224;
0.000428763;5.3562;12.2223;
0.000429763;5.36419;12.2223;
0.000430763;5.37216;12.2223;
0.000431763;5.38013;12.2223;
0.000432763;5.38808;12.2222;
0.000433763;5.39603;12.2222;
0.000434763;5.40396;12.2221;
0.000435763;5.41189;12.2221;
0.000436763;5.4198;12.222;
0.000437763;5.4277;12.222;
0.000438763;5.4356;12.2219;
0.000439763;5.44348;12.2219;
0.000440763;5.45135;12.2219;
0.000441763;5.45921;12.2218;
0.000442763;5.46706;12.2218;
0.000443763;5.4749;12.2218;
0.000444763;5.48273;12.2217;
0.000445763;5.49055;12.2217;
0.000446763;5.49836;12.2216;
0.000447763;5.50616;12.2216;
0.000448763;5.51395;12.2215;
0.000449763;5.52172;12.2215;
0.000450763;5.52949;12.2214;
0.000451763;5.53725;12.2214;
0.000452763;5.545;12.2214;
0.000453763;5.55273;12.2214;
0.000454763;5.56046;12.2213;
0.000455763;5.56818;12.2213;
0.000456763;5.57588;12.2212;
0.000457763;5.58358;12.2212;
0.000458763;5.59126;12.2211;
0.000459763;5.59894;12.2211;
0.000460763;5.6066;12.221;
0.000461763;5.61426;12.221;
0.000462763;5.6219;12.221;
0.000463763;5.62954;12.221;
0.000464763;5.63716;12.2209;
0.000465763;5.64478;12.2209;
0.000466763;5.65238;12.2208;
0.000467763;5.65998;12.2208;
0.000468763;5.66756;12.2207;
0.000469763;5.67513;12.2207;
0.000470763;5.6827;12.2206;
0.000471763;5.69025;12.2206;
0.000472763;5.6978;12.2205;
0.000473763;5.70533;12.2205;
0.000474763;5.71285;12.2205;
0.000475763;5.72037;12.2205;
0.000476763;5.72787;12.2204;
0.000477763;5.73537;12.2204;
0.000478763;5.74285;12.2203;
0.000479763;5.75033;12.2203;
0.000480763;5.75779;12.2202;
0.000481763;5.76524;12.2202;
0.000482763;5.77269;12.2201;
0.000483763;5.78012;12.2201;
0.000484763;5.78755;12.2201;
0.000485763;5.79496;12.2201;
0.000486763;5.80237;12.22;
0.000487763;5.80976;12.22;
0.000488763;5.81715;12.2199;
0.000489763;5.82453;12.2199;
0.000490763;5.83189;12.2198;
0.000491763;5.83925;12.2198;
0.000492763;5.84659;12.2197;
0.000493763;5.85393;12.2197;
0.000494763;5.86126;12.2196;
0.000495763;5.86858;12.2197;
0.000496763;5.87588;12.2196;
0.000497763;5.88318;12.2196;
0.000498763;5.89047;12.2195;
0.000499763;5.89775;12.2195;
0.000500763;5.90502;12.2194;
0.000501763;5.91228;12.2194;
0.000502763;5.91953;12.2193;
0.000503763;5.92677;12.2193;
0.000504763;5.934;12.2192;
0.000505763;5.94122;12.2192;
0.000506763;5.94843;12.2192;
0.000507763;5.95563;12.2192;
0.000508763;5.96282;12.2191;
0.000509763;5.97;12.2191;
0.000510763;5.97718;12.219;
0.000511763;5.98434;12.219;
0.000512763;5.9915;12.2189;
0.000513763;5.99864;12.2189;
0.000514763;6.00578;12.2188;
0.000515763;6.0129;12.2188;
0.000516763;6.02002;12.2188;
0.000517763;6.02712;12.2188;
0.000518763;6.03422;12.2187;
0.000519763;6.04131;12.2187;
0.000520763;6.04839;12.2186;
0.000521763;6.05546;12.2186;
0.000522763;6.06252;12.2185;
0.000523763;6.06957;12.2185;
0.000524763;6.07661;12.2184;
0.000525763;6.08364;12.2184;
0.000526763;6.09066;12.2183;
0.000527763;6.09768;12.2184;
0.000528763;6.10468;12.2183;
0.000529763;6.11167;12.2183;
0.000530763;6.11866;12.2182;
0.000531763;6.12563;12.2182;
0.000532763;6.1326;12.2181;
0.000533763;6.13956;12.2181;
0.000534763;6.14651;12.218;
0.000535763;6.15345;12.218;
0.000536763;6.16038;12.2179;
0.000537763;6.1673;12.2179;
0.000538763;6.17421;12.2179;
0.000539763;6.18111;12.2179;
0.000540763;6.188;12.2178;
0.000541763;6.19489;12.2178;
0.000542763;6.20176;12.2177;
0.000543763;6.20863;12.2177;
0.000544763;6.21549;12.2176;
0.000545763;6.22233;12.2176;
0.000546763;6.22917;12.2175;
0.000547763;6.236;12.2175;
0.000548763;6.24282;12.2174;
0.000549763;6.24963;12.2175;
0.000550763;6.25643;12.2174;
0.000551763;6.26323;12.2174;
0.000552763;6.27001;12.2173;
0.000553763;6.27679;12.2173;
0.000554763;6.28355;12.2172;
0.000555763;6.29031;12.2172;
0.000556763;6.29706;12.2171;
0.000557763;6.3038;12.2171;
0.000558763;6.31053;12.217;
0.000559763;6.31725;12.2171;
0.000560763;6.32396;12.217;
0.000561763;6.33067;12.217;
0.000562763;6.33736;12.2169;
0.000563763;6.34405;12.2169;
0.000564763;6.35073;12.2168;
0.000565763;6.35739;12.2168;
0.000566763;6.36405;12.2167;
0.000567763;6.3707;12.2167;
0.000568763;6.37735;12.2166;
0.000569763;6.38398;12.2166;
0.000570763;6.3906;12.2166;
0.000571763;6.39722;12.2166;
0.000572763;6.40383;12.2165;
0.000573763;6.41042;12.2165;
0.000574763;6.41701;12.2164;
0.000575763;6.42359;12.2164;
0.000576763;6.43016;12.2163;
0.000577763;6.43673;12.2163;
0.000578763;6.44328;12.2162;
0.000579763;6.44983;12.2162;
0.000580763;6.45636;12.2161;
0.000581763;6.46289;12.2162;
0.000582763;6.46941;12.2161;
0.000583763;6.47592;12.2161;
0.000584763;6.48243;12.216;
0.000585763;6.48892;12.216;
0.000586763;6.4954;12.2159;
0.000587763;6.50188;12.2159;
0.000588763;6.50835;12.2158;
0.000589763;6.51481;12.2158;
0.000590763;6.52126;12.2157;
0.000591763;6.5277;12.2158;
0.000592763;6.53414;12.2157;
0.000593763;6.54056;12.2157;
0.000594763;6.54698;12.2156;
0.000595763;6.55339;12.2156;
0.000596763;6.55979;12.2155;
0.000597763;6.56618;12.2155;
0.000598763;6.57256;12.2154;
0.000599763;6.57893;12.2154;
0.000600763;6.5853;12.2153;
0.000601763;6.59166;12.2153;
0.000602763;6.59801;12.2153;
0.000603763;6.60435;12.2153;
0.000604763;6.61068;12.2152;
0.000605763;6.617;12.2152;
0.000606763;6.62332;12.2151;
0.000607763;6.62962;12.2151;
0.000608763;6.63592;12.215;
0.000609763;6.64221;12.215;
0.000610763;6.6485;12.2149;
0.000611763;6.65477;12.2149;
0.000612763;6.66103;12.2148;
0.000613763;6.66729;12.2149;
0.000614763;6.67354;12.2148;
0.000615763;6.67978;12.2148;
0.000616763;6.68601;12.2147;
0.000617763;6.69224;12.2147;
0.000618763;6.69845;12.2146;
0.000619763;6.70466;12.2146;
0.000620763;6.71086;12.2145;
0.000621763;6.71705;12.2145;
0.000622763;6.72323;12.2144;
0.000623763;6.72941;12.2145;
0.000624763;6.73557;12.2144;
0.000625763;6.74173;12.2144;
0.000626763;6.74788;12.2143;
0.000627763;6.75402;12.2143;
0.000628763;6.76016;12.2142;
0.000629763;6.76628;12.2142;
0.000630763;6.7724;12.2141;
0.000631763;6.77851;12.2141;
0.000632763;6.78461;12.214;
0.000633763;6.79071;12.214;
0.000634763;6.79679;12.214;
