time;V(U_a)1;V(U_o)1;
0;5.31909e-05;-0.000106238;
1e-07;5.31909e-05;-0.000106238;
2e-07;5.31909e-05;-0.000106238;
4e-07;5.31909e-05;-0.000106238;
8e-07;5.31909e-05;-0.000106238;
1.6e-06;5.31909e-05;-0.000106238;
3.2e-06;5.31909e-05;-0.000106238;
6.4e-06;5.31909e-05;-0.000106238;
1.28e-05;5.31909e-05;-0.000106238;
2.28e-05;5.31909e-05;-0.000106238;
3.28e-05;5.31909e-05;-0.000106238;
4.28e-05;5.31909e-05;-0.000106238;
5.28e-05;5.31909e-05;-0.000106238;
6.28e-05;5.31909e-05;-0.000106238;
7.28e-05;5.31909e-05;-0.000106238;
8.28e-05;5.31909e-05;-0.000106238;
9.28e-05;5.31909e-05;-0.000106238;
0.0001028;5.31909e-05;-0.000106238;
0.0001128;5.31909e-05;-0.000106238;
0.0001228;5.31909e-05;-0.000106238;
0.0001328;5.31909e-05;-0.000106238;
0.0001428;5.31909e-05;-0.000106238;
0.0001528;5.31909e-05;-0.000106238;
0.0001628;5.31909e-05;-0.000106238;
0.0001728;5.31909e-05;-0.000106238;
0.0001828;5.31909e-05;-0.000106238;
0.0001928;5.31909e-05;-0.000106238;
0.0002028;5.31909e-05;-0.000106238;
0.0002128;5.31909e-05;-0.000106238;
0.0002228;5.31909e-05;-0.000106238;
0.0002328;5.31909e-05;-0.000106238;
0.0002428;5.31909e-05;-0.000106238;
0.0002528;5.31909e-05;-0.000106238;
0.0002628;5.31909e-05;-0.000106238;
0.0002728;5.31909e-05;-0.000106238;
0.0002828;5.31909e-05;-0.000106238;
0.0002928;5.31909e-05;-0.000106238;
0.0003028;5.31909e-05;-0.000106238;
0.0003128;5.31909e-05;-0.000106238;
0.0003228;5.31909e-05;-0.000106238;
0.0003328;5.31909e-05;-0.000106238;
0.0003428;5.31909e-05;-0.000106238;
0.0003528;5.31909e-05;-0.000106238;
0.0003628;5.31909e-05;-0.000106238;
0.0003728;5.31909e-05;-0.000106238;
0.0003828;5.31909e-05;-0.000106238;
0.0003928;5.31909e-05;-0.000106238;
0.0004028;5.31909e-05;-0.000106238;
0.0004128;5.31909e-05;-0.000106237;
0.0004228;5.31909e-05;-0.000106238;
0.0004328;5.31909e-05;-0.000106237;
0.0004428;5.31909e-05;-0.000106238;
0.0004528;5.31909e-05;-0.000106237;
0.0004628;5.31909e-05;-0.000106238;
0.0004728;5.31909e-05;-0.000106237;
0.0004828;5.31909e-05;-0.000106238;
0.0004928;5.31909e-05;-0.000106237;
0.0005028;5.31909e-05;-0.000106238;
0.0005128;5.31909e-05;-0.000106237;
0.0005228;5.31909e-05;-0.000106238;
0.0005328;5.31909e-05;-0.000106237;
0.0005428;5.31909e-05;-0.000106238;
0.0005528;5.31909e-05;-0.000106237;
0.0005628;5.31909e-05;-0.000106238;
0.0005728;5.31909e-05;-0.000106237;
0.0005828;5.31909e-05;-0.000106238;
0.0005928;5.31909e-05;-0.000106237;
0.0006028;5.31909e-05;-0.000106238;
0.0006128;5.31909e-05;-0.000106237;
0.0006228;5.31909e-05;-0.000106238;
0.0006328;5.31909e-05;-0.000106237;
0.0006428;5.31909e-05;-0.000106238;
0.0006528;5.31909e-05;-0.000106237;
0.0006628;5.31909e-05;-0.000106238;
0.0006728;5.31909e-05;-0.000106237;
0.0006828;5.31909e-05;-0.000106238;
0.0006928;5.31909e-05;-0.000106237;
0.0007028;5.31909e-05;-0.000106238;
0.0007128;5.31909e-05;-0.000106237;
0.0007228;5.31909e-05;-0.000106238;
0.0007328;5.31909e-05;-0.000106237;
0.0007428;5.31909e-05;-0.000106238;
0.0007528;5.31909e-05;-0.000106237;
0.0007628;5.31909e-05;-0.000106238;
0.0007728;5.31909e-05;-0.000106237;
0.0007828;5.31909e-05;-0.000106238;
0.0007928;5.31909e-05;-0.000106237;
0.0008028;5.31909e-05;-0.000106238;
0.0008128;5.31909e-05;-0.000106237;
0.0008228;5.31909e-05;-0.000106239;
0.0008328;5.31909e-05;-0.000106237;
0.0008428;5.31909e-05;-0.000106239;
0.0008528;5.31909e-05;-0.000106236;
0.0008628;5.31909e-05;-0.000106239;
0.0008728;5.31909e-05;-0.000106236;
0.0008828;5.31909e-05;-0.000106239;
0.0008928;5.31909e-05;-0.000106236;
0.0009028;5.31909e-05;-0.000106239;
0.0009128;5.31909e-05;-0.000106236;
0.0009228;5.31909e-05;-0.000106239;
0.0009328;5.31909e-05;-0.000106236;
0.0009428;5.31909e-05;-0.00010624;
0.0009528;5.31909e-05;-0.000106236;
0.0009628;5.31909e-05;-0.00010624;
0.0009728;5.31909e-05;-0.000106235;
0.0009828;5.31909e-05;-0.00010624;
0.0009928;5.3191e-05;-0.000106235;
0.0010028;5.31909e-05;-0.00010624;
0.0010128;5.3191e-05;-0.000106235;
0.0010228;5.31909e-05;-0.000106241;
0.0010328;5.3191e-05;-0.000106234;
0.0010428;5.31909e-05;-0.000106241;
0.0010528;5.3191e-05;-0.000106234;
0.0010628;5.31909e-05;-0.000106241;
0.0010728;5.3191e-05;-0.000106234;
0.0010828;5.31908e-05;-0.000106242;
0.0010928;5.3191e-05;-0.000106233;
0.0011028;5.31908e-05;-0.000106242;
0.0011128;5.3191e-05;-0.000106233;
0.0011228;5.31908e-05;-0.000106243;
0.0011328;5.3191e-05;-0.000106232;
0.0011428;5.31908e-05;-0.000106244;
0.0011528;5.3191e-05;-0.000106231;
0.0011628;5.31908e-05;-0.000106244;
0.0011728;5.3191e-05;-0.00010623;
0.0011828;5.31908e-05;-0.000106245;
0.0011928;5.3191e-05;-0.00010623;
0.0012028;5.31908e-05;-0.000106246;
0.0012128;5.31911e-05;-0.000106229;
0.0012228;5.31908e-05;-0.000106247;
0.0012328;5.31911e-05;-0.000106228;
0.0012428;5.31907e-05;-0.000106248;
0.0012528;5.31911e-05;-0.000106226;
0.0012628;5.31907e-05;-0.00010625;
0.0012728;5.31911e-05;-0.000106225;
0.0012828;5.31907e-05;-0.000106251;
0.0012928;5.31911e-05;-0.000106223;
0.0013028;5.31907e-05;-0.000106253;
0.0013128;5.31912e-05;-0.000106222;
0.0013228;5.31906e-05;-0.000106254;
0.0013328;5.31912e-05;-0.00010622;
0.0013428;5.31906e-05;-0.000106256;
0.0013528;5.31912e-05;-0.000106218;
0.0013628;5.31906e-05;-0.000106259;
0.0013728;5.31913e-05;-0.000106215;
0.0013828;5.31905e-05;-0.000106261;
0.0013928;5.31913e-05;-0.000106212;
0.0014028;5.31905e-05;-0.000106264;
0.0014128;5.31913e-05;-0.000106209;
0.0014228;5.31904e-05;-0.000106267;
0.0014328;5.31914e-05;-0.000106206;
0.0014428;5.31904e-05;-0.000106271;
0.0014528;5.31915e-05;-0.000106202;
0.0014628;5.31903e-05;-0.000106275;
0.0014728;5.31915e-05;-0.000106198;
0.0014828;5.31903e-05;-0.00010628;
0.0014928;5.31916e-05;-0.000106193;
0.0015028;5.31902e-05;-0.000106285;
0.0015128;5.31917e-05;-0.000106188;
0.0015228;5.31901e-05;-0.000106291;
0.0015328;5.31918e-05;-0.000106181;
0.0015428;5.319e-05;-0.000106297;
0.0015528;5.31919e-05;-0.000106175;
0.0015628;5.31899e-05;-0.000106304;
0.0015728;5.3192e-05;-0.000106167;
0.0015828;5.31898e-05;-0.000106312;
0.0015928;5.31921e-05;-0.000106158;
0.0016028;5.31896e-05;-0.000106321;
0.0016128;5.31923e-05;-0.000106149;
0.0016228;5.31895e-05;-0.000106332;
0.0016328;5.31925e-05;-0.000106138;
0.0016428;5.31893e-05;-0.000106343;
0.0016528;5.31926e-05;-0.000106126;
0.0016628;5.31891e-05;-0.000106356;
0.0016728;5.31929e-05;-0.000106112;
0.0016828;5.31889e-05;-0.00010637;
0.0016928;5.31931e-05;-0.000106097;
0.0017028;5.31886e-05;-0.000106386;
0.0017128;5.31934e-05;-0.00010608;
0.0017228;5.31883e-05;-0.000106404;
0.0017328;5.31936e-05;-0.000106061;
0.0017428;5.3188e-05;-0.000106425;
0.0017528;5.3194e-05;-0.00010604;
0.0017628;5.31877e-05;-0.000106447;
0.0017728;5.31944e-05;-0.000106016;
0.0017828;5.31873e-05;-0.000106473;
0.0017928;5.31948e-05;-0.000105989;
0.0018028;5.31868e-05;-0.000106501;
0.0018128;5.31952e-05;-0.000105958;
0.0018228;5.31863e-05;-0.000106533;
0.0018328;5.31958e-05;-0.000105924;
0.0018428;5.31858e-05;-0.000106569;
0.0018528;5.31964e-05;-0.000105886;
0.0018628;5.31851e-05;-0.000106609;
0.0018728;5.3197e-05;-0.000105844;
0.0018828;5.31844e-05;-0.000106655;
0.0018928;5.31978e-05;-0.000105796;
0.0019028;5.31837e-05;-0.000106705;
0.0019128;5.31986e-05;-0.000105742;
0.0019228;5.31828e-05;-0.000106762;
0.0019328;5.31995e-05;-0.000105682;
0.0019428;5.31818e-05;-0.000106826;
0.0019528;5.32006e-05;-0.000105615;
0.0019628;5.31807e-05;-0.000106897;
0.0019728;5.32017e-05;-0.000105539;
0.0019828;5.31794e-05;-0.000106977;
0.0019928;5.32031e-05;-0.000105454;
0.0020028;5.31781e-05;-0.000107067;
0.0020128;5.32045e-05;-0.000105359;
0.0020228;5.31765e-05;-0.000107168;
0.0020328;5.32062e-05;-0.000105253;
0.0020428;5.31747e-05;-0.000107281;
0.0020528;5.3208e-05;-0.000105133;
0.0020628;5.31728e-05;-0.000107407;
0.0020728;5.32101e-05;-0.000104999;
0.0020828;5.31706e-05;-0.000107549;
0.0020928;5.32124e-05;-0.000104849;
0.0021028;5.31681e-05;-0.000107708;
0.0021128;5.32151e-05;-0.00010468;
0.0021228;5.31653e-05;-0.000107887;
0.0021328;5.3218e-05;-0.000104491;
0.0021428;5.31622e-05;-0.000108087;
0.0021528;5.32213e-05;-0.000104279;
0.0021628;5.31588e-05;-0.000108312;
0.0021728;5.3225e-05;-0.000104041;
0.0021828;5.31549e-05;-0.000108563;
0.0021928;5.32291e-05;-0.000103775;
0.0022028;5.31505e-05;-0.000108846;
0.0022128;5.32337e-05;-0.000103476;
0.0022228;5.31456e-05;-0.000109162;
0.0022328;5.32389e-05;-0.000103141;
0.0022428;5.31401e-05;-0.000109517;
0.0022528;5.32447e-05;-0.000102765;
0.0022628;5.31339e-05;-0.000109915;
0.0022728;5.32513e-05;-0.000102343;
0.0022828;5.3127e-05;-0.000110362;
0.0022928;5.32586e-05;-0.00010187;
0.0023028;5.31192e-05;-0.000110862;
0.0023128;5.32668e-05;-0.00010134;
0.0023228;5.31105e-05;-0.000111424;
0.0023328;5.3276e-05;-0.000100745;
0.0023428;5.31008e-05;-0.000112053;
0.0023528;5.32864e-05;-0.000100079;
0.0023628;5.30898e-05;-0.00011276;
0.0023728;5.3298e-05;-9.93311e-05;
0.0023828;5.30775e-05;-0.000113551;
0.0023928;5.3311e-05;-9.84927e-05;
0.0024028;5.30638e-05;-0.000114439;
0.0024128;5.33255e-05;-9.75526e-05;
0.0024228;5.30483e-05;-0.000115435;
0.0024328;5.33419e-05;-9.64983e-05;
0.0024428;5.3031e-05;-0.000116551;
0.0024528;5.33602e-05;-9.5316e-05;
0.0024628;5.30116e-05;-0.000117803;
0.00247276;5.33808e-05;-9.39872e-05;
0.00248261;5.29896e-05;-0.000119221;
0.00249231;5.34044e-05;-9.24642e-05;
0.0025018;5.29641e-05;-0.000120869;
0.00251098;5.34323e-05;-9.06649e-05;
0.00251979;5.29333e-05;-0.000122857;
0.00252813;5.34669e-05;-8.84364e-05;
0.0025359;5.28939e-05;-0.0001254;
0.00254227;5.35159e-05;-8.52698e-05;
0.00254733;5.28269e-05;-0.000129722;
0.00255055;5.3626e-05;-7.81674e-05;
0.00255229;5.25852e-05;-0.000145315;
0.00255304;5.45592e-05;-1.79652e-05;
0.00255331;0.00010911;0.00350121;
0.00255344;0.000201123;0.00943615;
0.00255352;0.000310799;0.0165102;
0.00255358;0.000476311;0.0271832;
0.00255366;0.000796127;0.0478009;
0.00255372;0.00114992;0.0706008;
0.00255377;0.00161702;0.100693;
0.00255382;0.00228009;0.143384;
0.00255387;0.00333558;0.21134;
0.00255394;0.00514926;0.328189;
0.002554;0.00815947;0.522678;
0.00255407;0.0132168;0.852236;
0.0025541;0.0157788;1.01015;
0.00255411;0.018138;1.12422;
0.00255412;0.0198219;1.1806;
0.00255413;0.0213662;1.21789;
0.00255413;0.0230146;1.24862;
0.00255413;0.0251881;1.28087;
0.00255414;0.0286544;1.32195;
0.00255414;0.0329442;1.36408;
0.00255415;0.0418634;1.44021;
0.00255416;0.052644;1.52887;
0.00255417;0.0635735;1.62896;
0.00255418;0.0717141;1.7399;
0.00255419;0.0718283;1.83147;
0.00255419;0.0680931;1.91398;
0.0025542;0.0655816;1.95748;
0.0025542;0.0618704;2.01724;
0.00255421;0.0564392;2.10055;
0.00255422;0.0499019;2.19939;
0.00255423;0.0437957;2.29345;
0.00255424;0.0377379;2.39102;
0.00255425;0.0317326;2.49446;
0.00255427;0.0232667;2.65862;
0.00255429;0.0144963;2.86819;
0.00255431;0.00748423;3.09657;
0.00255433;0.00237072;3.35015;
0.00255436;-0.000765451;3.62321;
0.00255438;-0.00199874;3.82704;
0.0025544;-0.00254261;3.98519;
0.00255441;-0.00286064;4.13996;
0.00255443;-0.00307226;4.31997;
0.00255445;-0.00319794;4.49463;
0.00255447;-0.00331616;4.69918;
0.00255449;-0.0034567;4.91228;
0.00255452;-0.00368078;5.17389;
0.00255455;-0.00401653;5.47563;
0.00255459;-0.00458679;5.90324;
0.00255466;-0.00559705;6.58764;
0.00255472;-0.0066055;7.26065;
0.0025548;-0.00772998;8.02162;
0.0025549;-0.00924231;9.05173;
0.00255496;-0.0100263;9.58434;
0.00255499;-0.0104932;9.90242;
0.00255501;-0.0107661;10.0874;
0.00255502;-0.0109326;10.1951;
0.00255503;-0.0112459;10.2759;
0.00255503;-0.0120197;10.3149;
0.00255504;-0.0133725;10.3369;
0.00255505;-0.0155351;10.3538;
0.00255506;-0.0179645;10.3658;
0.00255507;-0.0202099;10.3746;
0.00255507;-0.0218338;10.3807;
0.00255509;-0.0232515;10.3868;
0.0025551;-0.0240892;10.3925;
0.00255512;-0.0240471;10.3987;
0.00255514;-0.0228594;10.4043;
0.00255516;-0.0208805;10.4094;
0.00255518;-0.0191536;10.4131;
0.00255519;-0.0177715;10.4161;
0.00255521;-0.0168944;10.4183;
0.00255522;-0.0163071;10.4201;
0.00255524;-0.0159237;10.4218;
0.00255525;-0.0156916;10.4235;
0.00255526;-0.0156209;10.425;
0.00255528;-0.0156732;10.4267;
0.0025553;-0.0158408;10.4283;
0.00255532;-0.0161379;10.4302;
0.00255534;-0.0165203;10.432;
0.00255537;-0.0170216;10.4343;
0.0025554;-0.0174889;10.4363;
0.00255544;-0.0180508;10.4387;
0.00255549;-0.0187149;10.4414;
0.00255557;-0.0197805;10.4452;
0.00255566;-0.0208729;10.4483;
0.00255577;-0.0223441;10.4518;
0.002556;-0.0252848;10.4571;
0.00255621;-0.0279917;10.4607;
0.00255658;-0.0327437;10.4651;
0.00255696;-0.037708;10.4682;
0.00255773;-0.0476414;10.472;
0.00255857;-0.0584093;10.4741;
0.00255998;-0.0766967;10.4758;
0.00256147;-0.0958689;10.4764;
0.0025637;-0.124688;10.4766;
0.00256635;-0.15888;10.4767;
0.00257114;-0.220778;10.4767;
0.00257876;-0.319168;10.4767;
0.00258876;-0.448282;10.4767;
0.00259876;-0.57738;10.4767;
0.00260876;-0.706468;10.4767;
0.00261876;-0.83554;10.4767;
0.00262876;-0.964602;10.4767;
0.00263876;-1.09365;10.4767;
0.00264876;-1.22268;10.4767;
0.00265876;-1.3517;10.4767;
0.00266876;-1.48071;10.4767;
0.00267876;-1.60971;10.4767;
0.00268876;-1.73869;10.4767;
0.00269876;-1.86766;10.4767;
0.00270876;-1.99662;10.4767;
0.00271876;-2.12556;10.4767;
0.00272876;-2.25449;10.4767;
0.00273876;-2.38341;10.4767;
0.00274876;-2.51232;10.4767;
0.00275876;-2.64121;10.4767;
0.00276876;-2.77009;10.4767;
0.00277876;-2.89895;10.4767;
0.00278876;-3.02781;10.4767;
0.00279876;-3.15665;10.4767;
0.00280876;-3.28547;10.4767;
0.00281876;-3.41429;10.4767;
0.00282876;-3.54309;10.4767;
0.00283876;-3.67188;10.4767;
0.00284876;-3.80065;10.4767;
0.00285876;-3.92941;10.4767;
0.00286876;-4.05817;10.4767;
0.00287876;-4.1869;10.4767;
0.00288876;-4.31563;10.4767;
0.00289876;-4.44434;10.4767;
0.00290876;-4.57303;10.4767;
0.00291876;-4.70172;10.4767;
0.00292876;-4.83039;10.4767;
0.00293876;-4.95905;10.4767;
0.00294876;-5.0877;10.4767;
0.00295876;-5.21633;10.4767;
0.00296876;-5.34495;10.4767;
0.00297876;-5.47356;10.4767;
0.00298876;-5.60215;10.4766;
0.00299876;-5.73073;10.4762;
0.00300876;-5.8593;10.475;
0.00301876;-5.98786;10.4732;
0.00302876;-6.1164;10.4706;
0.00303876;-6.24493;10.4673;
0.00304876;-6.37344;10.463;
0.00305876;-6.50194;10.4574;
0.00306876;-6.63043;10.4496;
0.00307876;-6.7589;10.4374;
0.00308876;-6.88736;10.41;
0.00308916;-6.89248;10.4078;
0.00308995;-6.90272;10.4027;
0.0030911;-6.91738;10.3923;
0.00309175;-6.92582;10.3828;
0.0030922;-6.93161;10.3722;
0.00309249;-6.93533;10.3611;
0.00309253;-6.9358;10.3591;
0.0030926;-6.93673;10.3548;
0.00309275;-6.93861;10.3423;
0.00309282;-6.93957;10.3325;
0.00309287;-6.94031;10.3218;
0.00309292;-6.94103;10.3071;
0.00309297;-6.94176;10.2863;
0.00309302;-6.9427;10.2482;
0.00309307;-6.94362;10.1938;
0.00309313;-6.94478;10.0888;
0.0030932;-6.94607;9.92646;
0.00309325;-6.94723;9.7577;
0.00309332;-6.94919;9.41192;
0.0030934;-6.95148;8.84377;
0.00309345;-6.95246;8.43589;
0.00309348;-6.9527;8.09808;
0.00309352;-6.95224;7.69207;
0.00309357;-6.95144;7.26929;
0.00309359;-6.95111;7.04327;
0.00309361;-6.95094;6.81186;
0.00309364;-6.95097;6.5267;
0.00309368;-6.95131;6.12422;
0.00309371;-6.95167;5.82267;
0.00309374;-6.95211;5.4772;
0.00309379;-6.95263;5.05431;
0.00309383;-6.95319;4.56565;
0.00309391;-6.95398;3.83095;
0.00309402;-6.95516;2.73954;
0.00309414;-6.95649;1.50984;
0.00309419;-6.95753;0.969417;
0.00309421;-6.98006;0.735371;
0.00309422;-7.0103;0.586089;
0.00309422;-7.03441;0.467946;
0.00309423;-7.04681;0.396465;
0.00309423;-7.0585;0.318363;
0.00309424;-7.06882;0.234096;
0.00309425;-7.08103;0.0871773;
0.00309426;-7.08595;-0.0765606;
0.00309428;-7.08128;-0.259621;
0.00309429;-7.06861;-0.434404;
0.0030943;-7.0533;-0.590664;
0.00309432;-7.03619;-0.755809;
0.00309433;-7.02111;-0.911754;
0.00309434;-7.00656;-1.08754;
0.00309436;-6.996;-1.24616;
0.00309437;-6.98708;-1.42152;
0.00309438;-6.98097;-1.58777;
0.0030944;-6.97673;-1.75514;
0.00309441;-6.97436;-1.89504;
0.00309442;-6.97279;-2.05191;
0.00309443;-6.97382;-2.18138;
0.00309444;-6.97805;-2.25893;
0.00309445;-6.98457;-2.35857;
0.00309445;-6.98543;-2.39522;
0.00309445;-6.98546;-2.43534;
0.00309446;-6.98515;-2.47786;
0.00309446;-6.98468;-2.52187;
0.00309447;-6.98391;-2.58104;
0.00309447;-6.98283;-2.65203;
0.00309448;-6.98134;-2.7419;
0.00309449;-6.97871;-2.89107;
0.00309451;-6.97584;-3.05235;
0.00309452;-6.97324;-3.20525;
0.00309454;-6.97095;-3.35055;
0.00309455;-6.9688;-3.50131;
0.00309457;-6.96682;-3.65779;
0.00309458;-6.96497;-3.82435;
0.0030946;-6.96324;-4.00423;
0.00309462;-6.96128;-4.2471;
0.00309464;-6.95994;-4.44582;
0.00309466;-6.95872;-4.65545;
0.00309469;-6.95734;-4.93302;
0.00309471;-6.95624;-5.19016;
0.00309475;-6.95498;-5.53165;
0.00309479;-6.9537;-5.94137;
0.00309485;-6.95208;-6.56332;
0.0030949;-6.95082;-7.13853;
0.00309497;-6.94941;-7.86241;
0.00309504;-6.94816;-8.57051;
0.00309513;-6.94661;-9.48713;
0.00309516;-6.94604;-9.83152;
0.00309518;-6.94568;-10.0516;
0.00309519;-6.94547;-10.1781;
0.0030952;-6.94521;-10.2634;
0.00309521;-6.9445;-10.3095;
0.00309522;-6.94319;-10.3341;
0.00309522;-6.94097;-10.3527;
0.00309523;-6.93883;-10.3636;
0.00309524;-6.93654;-10.3724;
0.00309525;-6.93435;-10.3797;
0.00309526;-6.93248;-10.3856;
0.00309527;-6.93068;-10.392;
0.00309529;-6.92952;-10.398;
0.00309531;-6.92924;-10.4033;
0.00309533;-6.92976;-10.4081;
0.00309535;-6.93102;-10.4129;
0.00309537;-6.93256;-10.4171;
0.0030954;-6.93415;-10.4211;
0.00309543;-6.93529;-10.4244;
0.00309546;-6.93617;-10.4277;
0.0030955;-6.93673;-10.4311;
0.00309553;-6.93695;-10.434;
0.00309557;-6.93696;-10.4364;
0.00309561;-6.93682;-10.4389;
0.00309565;-6.93657;-10.4413;
0.00309569;-6.93621;-10.4435;
0.00309574;-6.93574;-10.4457;
0.00309579;-6.93522;-10.4476;
0.00309584;-6.93464;-10.4494;
0.0030959;-6.93396;-10.4512;
0.00309596;-6.93314;-10.4531;
0.00309604;-6.93216;-10.4551;
0.00309613;-6.93096;-10.4572;
0.00309625;-6.92947;-10.4594;
0.0030964;-6.92756;-10.4618;
0.0030966;-6.92497;-10.4644;
0.00309688;-6.92125;-10.4672;
0.00309732;-6.91555;-10.4703;
0.00309802;-6.9066;-10.4733;
0.00309904;-6.89327;-10.4757;
0.00310049;-6.87458;-10.477;
0.00310212;-6.8534;-10.4775;
0.00310435;-6.82452;-10.4777;
0.00310737;-6.7855;-10.4777;
0.00311251;-6.71887;-10.4777;
0.00312187;-6.59771;-10.4777;
0.00313187;-6.46824;-10.4777;
0.00314187;-6.33878;-10.4777;
0.00315187;-6.20934;-10.4777;
0.00316187;-6.0799;-10.4776;
0.00317187;-5.95048;-10.4776;
0.00318187;-5.82108;-10.4776;
0.00319187;-5.69168;-10.4776;
0.00320187;-5.5623;-10.4776;
0.00321187;-5.43293;-10.4776;
0.00322187;-5.30358;-10.4776;
0.00323187;-5.17424;-10.4776;
0.00324187;-5.04491;-10.4776;
0.00325187;-4.91559;-10.4776;
0.00326187;-4.78629;-10.4775;
0.00327187;-4.657;-10.4775;
0.00328187;-4.52772;-10.4775;
0.00329187;-4.39846;-10.4775;
0.00330187;-4.26921;-10.4775;
0.00331187;-4.13997;-10.4775;
0.00332187;-4.01075;-10.4775;
0.00333187;-3.88154;-10.4775;
0.00334187;-3.75234;-10.4775;
0.00335187;-3.62315;-10.4775;
0.00336187;-3.49398;-10.4775;
0.00337187;-3.36482;-10.4774;
0.00338187;-3.23567;-10.4774;
0.00339187;-3.10654;-10.4774;
0.00340187;-2.97742;-10.4774;
0.00341187;-2.84831;-10.4774;
0.00342187;-2.71921;-10.4774;
0.00343187;-2.59013;-10.4774;
0.00344187;-2.46106;-10.4774;
0.00345187;-2.33201;-10.4774;
0.00346187;-2.20296;-10.4774;
0.00347187;-2.07393;-10.4773;
0.00348187;-1.94492;-10.4773;
0.00349187;-1.81591;-10.4773;
0.00350187;-1.68692;-10.4773;
0.00351187;-1.55794;-10.4773;
0.00352187;-1.42898;-10.4773;
0.00353187;-1.30003;-10.4773;
0.00354187;-1.17109;-10.4773;
0.00355187;-1.04216;-10.4773;
0.00356187;-0.913246;-10.4773;
0.00357187;-0.784345;-10.4773;
0.00358187;-0.655458;-10.4772;
0.00359187;-0.526583;-10.4772;
0.00360187;-0.397722;-10.4772;
