time;V(U_a);V(U_e);
0;8.49064;0;
2e-11;8.49064;0;
4e-11;8.49064;0;
8e-11;8.49064;0;
1.6e-10;8.49064;0;
3.2e-10;8.49064;0;
6.4e-10;8.49064;0;
1.28e-09;8.49064;0;
2e-09;8.49064;0;
2.01187e-09;8.49064;0.0712412;
2.03562e-09;8.49064;0.213724;
2.08311e-09;8.49065;0.498689;
2.14935e-09;8.49066;0.896111;
2.28183e-09;8.4908;1.69095;
2.45816e-09;8.49121;2.74895;
2.62278e-09;8.4915;3.73665;
2.85167e-09;8.49121;5.11;
3.19948e-09;8.48819;7.1969;
3.54867e-09;8.47941;9.29204;
3.92253e-09;8.46063;11.5352;
4e-09;8.45539;12;
4.04175e-09;8.45229;12;
4.12526e-09;8.4458;12;
4.29228e-09;8.43112;12;
4.50087e-09;8.40951;12;
4.71674e-09;8.38322;12;
4.99046e-09;8.34415;12;
5.33493e-09;8.28628;12;
5.73841e-09;8.20736;12;
6.15191e-09;8.11587;12;
6.81031e-09;7.95666;12;
7.82398e-09;7.73577;12;
8.98209e-09;7.66369;12;
1.06379e-08;8.04371;12;
1.16522e-08;8.41067;12;
1.25823e-08;8.68916;12;
1.35176e-08;8.95459;12;
1.4392e-08;9.20983;12;
1.52522e-08;9.4468;12;
1.61793e-08;9.67455;12;
1.71317e-08;9.88055;12;
1.82306e-08;10.087;12;
1.96308e-08;10.3085;12;
2.15205e-08;10.5465;12;
2.41936e-08;10.7928;12;
2.81742e-08;11.0284;12;
3.28645e-08;11.185;12;
3.78234e-08;11.2743;12;
4.27072e-08;11.3232;12;
4.73473e-08;11.3509;12;
5.17791e-08;11.368;12;
5.81026e-08;11.3835;12;
6.50941e-08;11.3939;12;
7.5477e-08;11.4036;12;
8.69675e-08;11.4106;12;
1.0674e-07;11.4192;12;
1.32175e-07;11.4272;12;
1.83043e-07;11.4384;12;
2.12634e-07;9.36971;12;
2.37148e-07;0.0892183;12;
2.54439e-07;0.0157025;12;
2.68181e-07;0.0563135;12;
2.79334e-07;0.0148289;12;
2.85813e-07;0.0275479;12;
2.90318e-07;0.0144218;12;
2.93779e-07;0.0272347;12;
2.96915e-07;0.0150007;12;
3.00089e-07;0.0266291;12;
3.03741e-07;0.0153888;12;
3.0905e-07;0.0262841;12;
3.16565e-07;0.0155386;12;
3.25376e-07;0.0261015;12;
3.42999e-07;0.0156159;12;
3.78245e-07;0.0260584;12;
4.38008e-07;0.0156346;12;
5.57532e-07;0.0260247;12;
7.34571e-07;0.0156696;12;
1.01396e-06;0.0260003;12;
1.4623e-06;0.0156837;12;
2.02914e-06;0.0259731;12;
2.65188e-06;0.0156916;12;
3.14308e-06;0.0259881;12;
3.65379e-06;0.0156935;12;
4.12528e-06;0.0259858;12;
4.66876e-06;0.0156948;12;
5.70722e-06;0.0259841;12;
6.87662e-06;0.0156956;12;
8.85286e-06;0.0259835;12;
1.06284e-05;0.0146381;12;
1.22944e-05;0.0263157;12;
1.28507e-05;0.0154627;12;
1.33716e-05;0.0261795;12;
1.39613e-05;0.0154727;12;
1.46673e-05;0.026169;12;
1.60794e-05;0.0154738;12;
1.80854e-05;0.0261871;12;
2.14778e-05;0.0154585;12;
2.71404e-05;0.0261867;12;
3.61021e-05;0.0154662;12;
5.40256e-05;0.0261863;12;
8.98727e-05;0.0154742;12;
0.000161567;0.0261863;12;
0.000261567;0.0154721;12;
0.000361567;0.0261765;12;
0.000461567;0.0154743;12;
0.000561567;0.0261765;12;
0.000661567;0.0154743;12;
0.000761567;0.0261765;12;
0.000861567;0.0154743;12;
0.000961567;0.0261765;12;
0.000990004;0.0154727;12;
0.000990004;0.0198699;10.8;
0.000990005;0.0206614;8.4;
0.000990005;0.0200706;6.11674;
0.000990005;0.0205668;3.92161;
0.000990006;0.0202315;1.61458;
0.000990006;0.0205473;0;
0.000990006;0.0204714;0;
0.000990006;0.0204273;0;
0.000990006;0.020466;0;
0.000990006;0.0204821;0;
0.000990007;0.0205197;0;
0.000990007;0.0205326;0;
0.000990007;0.0205464;0;
0.000990007;0.0205361;0;
0.000990007;0.0205232;0;
0.000990008;0.0204952;0;
0.000990008;0.0204746;0;
0.000990008;0.0204506;0;
0.000990008;0.0204309;0;
0.000990009;0.0204052;0;
0.000990009;0.020374;0;
0.000990009;0.0203445;0;
0.00099001;0.0203083;0;
0.000990011;0.0202922;0;
0.000990012;0.0202895;0;
0.000990015;0.020305;0;
0.000990018;0.0203156;0;
0.000990024;0.0203222;0;
0.000990033;0.020324;0;
0.000990042;0.0203164;0;
0.000990052;2.95371;0;
0.000990058;7.58612;0;
0.000990062;9.03176;0;
0.000990064;9.56971;0;
0.000990065;9.82778;0;
0.000990066;10.0312;0;
0.000990067;10.1543;0;
0.000990067;10.2556;0;
0.000990068;10.3546;0;
0.000990069;10.4649;0;
0.00099007;10.5829;0;
0.000990071;10.7026;0;
0.000990073;10.8297;0;
0.000990075;10.9536;0;
0.000990078;11.0724;0;
0.000990081;11.1794;0;
0.000990086;11.277;0;
0.000990093;11.3331;0;
0.0009901;11.3674;0;
0.000990108;11.3858;0;
0.000990115;11.3958;0;
0.000990124;11.4036;0;
0.000990138;11.4116;0;
0.000990152;11.4178;0;
0.000990181;11.4271;0;
0.00099021;11.434;0;
0.000990269;11.4441;0;
0.000990369;11.4554;0;
0.000990539;11.4677;0;
0.000990835;11.4808;0;
0.00099137;11.4949;0;
0.00099225;11.5085;0;
0.000994011;11.5242;0;
0.000997532;11.541;0;
0.001;11.5482;0;
0.001;11.5481;1.2;
0.001;11.5481;3.6;
0.001;11.5481;5.76311;
0.001;11.5481;7.69533;
0.001;11.5481;9.55331;
0.001;11.5481;12;
0.001;11.5481;12;
0.001;11.5481;12;
0.001;11.5481;12;
0.001;11.5481;12;
0.001;11.5481;12;
0.00100001;11.5482;12;
0.00100001;11.5482;12;
0.00100001;11.5482;12;
0.00100001;11.5482;12;
0.00100001;11.5482;12;
0.00100001;11.5482;12;
0.00100001;11.5482;12;
0.00100001;11.5482;12;
0.00100001;11.5482;12;
0.00100002;11.5482;12;
0.00100003;11.5482;12;
0.00100004;11.5482;12;
0.00100004;11.5482;12;
0.00100005;11.5483;12;
0.00100006;11.5483;12;
0.00100008;11.5483;12;
0.0010001;11.5484;12;
0.00100014;11.5485;12;
0.00100019;11.5486;12;
0.00100026;11.5488;12;
0.00100037;11.5491;12;
0.00100057;11.5495;12;
0.00100096;11.5504;12;
0.00100134;11.5513;12;
0.00100173;11.5521;12;
0.00100196;11.5526;12;
0.00100212;11.553;12;
0.00100222;11.5532;12;
0.0010023;11.5533;12;
0.00100236;11.5534;12;
0.00100243;11.5536;12;
0.0010025;11.5537;12;
0.00100259;11.5539;12;
0.00100274;11.5542;12;
0.00100301;11.5547;12;
0.00100357;11.5558;12;
0.00100469;11.5578;12;
0.00100691;11.5614;12;
0.00101137;11.5673;12;
0.00102028;11.5763;12;
0.0010381;11.5884;12;
0.00107375;11.6029;12;
0.00109651;11.6088;12;
0.00111161;0.0203777;12;
0.00111952;0.0209373;12;
0.00112307;0.0204295;12;
0.00112501;0.0203011;12;
0.0011271;0.0203368;12;
0.00112942;0.0203102;12;
0.0011305;0.0203366;12;
0.00113194;0.0203103;12;
0.00113482;0.0203366;12;
0.00114059;0.0203103;12;
0.00115212;0.0203366;12;
0.00117519;0.0203103;12;
0.00122132;0.0203366;12;
0.00131359;0.0203103;12;
0.00141359;0.0203366;12;
0.00151359;0.0203103;12;
0.00161359;0.0203366;12;
0.00171359;0.0203103;12;
0.00181359;0.0203366;12;
0.00191359;0.0203103;12;
0.00199;0.0203366;12;
0.00199;0.020323;10.8;
0.00199;0.0203264;8.4;
0.00199;0.0203427;6.11505;
0.00199001;0.0203649;3.92614;
0.00199001;0.0203992;1.62743;
0.00199001;0.0204266;0;
0.00199001;0.0204309;0;
0.00199001;0.0204401;0;
0.00199001;0.0204617;0;
0.00199001;0.0204899;0;
0.00199001;0.0205179;0;
0.00199001;0.0205372;0;
0.00199001;0.0205444;0;
0.00199001;0.020538;0;
0.00199001;0.0205209;0;
0.00199001;0.0204959;0;
0.00199001;0.0204726;0;
0.00199001;0.0204507;0;
0.00199001;0.0204294;0;
0.00199001;0.0204051;0;
0.00199001;0.0203728;0;
0.00199001;0.0203445;0;
0.00199001;0.0203076;0;
0.00199001;0.0202925;0;
0.00199001;0.0202892;0;
0.00199002;0.0203056;0;
0.00199002;0.0203153;0;
0.00199002;0.0203226;0;
0.00199003;0.0203236;0;
0.00199003;0.0203235;0;
0.00199004;0.0203231;0;
0.00199004;0.020319;0;
0.00199004;0.0203229;0;
0.00199005;0.97228;0;
0.00199005;3.30304;0;
0.00199005;4.54645;0;
0.00199005;5.36359;0;
0.00199005;5.83426;0;
0.00199006;6.33448;0;
0.00199006;6.9195;0;
0.00199006;7.39826;0;
0.00199006;8.02814;0;
0.00199006;8.64051;0;
0.00199006;9.29395;0;
0.00199007;9.96443;0;
0.00199007;10.5826;0;
0.00199007;10.938;0;
0.00199008;11.1231;0;
0.00199008;11.236;0;
0.00199009;11.3046;0;
0.00199009;11.3426;0;
0.0019901;11.3711;0;
0.00199011;11.3877;0;
0.00199012;11.4031;0;
0.00199014;11.4111;0;
0.00199017;11.4234;0;
0.0019902;11.433;0;
0.00199028;11.447;0;
0.00199044;11.4618;0;
0.00199074;11.4782;0;
0.00199133;11.4944;0;
0.00199232;11.5102;0;
0.00199426;11.5257;0;
0.00199784;11.5425;0;
0.002;11.5479;0;
0.002;11.5481;1.2;
0.002;11.5482;3.6;
0.002;11.5481;5.76652;
0.002;11.5481;7.70022;
0.002;11.5481;9.55725;
0.002;11.5481;12;
0.002;11.5481;12;
0.002;11.5481;12;
0.002;11.5481;12;
0.002;11.5482;12;
0.002;11.5482;12;
0.00200001;11.5482;12;
0.00200001;11.5482;12;
0.00200001;11.5482;12;
0.00200001;11.5482;12;
0.00200001;11.5482;12;
0.00200001;11.5482;12;
0.00200001;11.5482;12;
0.00200001;11.5482;12;
0.00200001;11.5482;12;
0.00200002;11.5483;12;
0.00200003;11.5483;12;
0.00200004;11.5483;12;
0.00200004;11.5483;12;
0.00200005;11.5483;12;
0.00200006;11.5484;12;
0.00200008;11.5484;12;
0.0020001;11.5485;12;
0.00200014;11.5486;12;
0.00200019;11.5487;12;
0.00200026;11.5489;12;
0.00200038;11.5491;12;
0.00200058;11.5496;12;
0.00200096;11.5505;12;
0.00200134;11.5513;12;
0.00200173;11.5522;12;
0.00200195;11.5527;12;
0.00200212;11.553;12;
0.00200222;11.5532;12;
0.00200229;11.5534;12;
0.00200235;11.5535;12;
0.00200242;11.5536;12;
0.00200248;11.5538;12;
0.00200257;11.5539;12;
0.00200271;11.5542;12;
0.00200298;11.5547;12;
0.00200352;11.5557;12;
0.0020046;11.5577;12;
0.00200676;11.5612;12;
0.00201107;11.567;12;
0.0020197;11.5758;12;
0.00203696;11.5878;12;
0.00206468;11.5997;12;
0.00208907;11.6068;12;
0.00209088;11.6072;12;
0.00209449;11.6081;12;
0.00209816;11.609;12;
0.0021018;0.0204218;12;
0.00210433;0.0203217;12;
0.00210666;0.0204219;12;
0.00210959;0.0203097;12;
0.00211105;0.0203827;12;
0.00211229;0.0202653;12;
0.0021128;0.0203634;12;
0.00211328;0.0202779;12;
0.00211384;0.0203695;12;
0.00211456;0.0202779;12;
0.00211539;0.0203697;12;
0.00211682;0.0202777;12;
0.00211852;0.0203698;12;
0.00212139;0.0202776;12;
0.00212647;0.0203699;12;
0.00213625;0.0202776;12;
0.00215579;0.0203699;12;
0.00219488;0.0202776;12;
0.00227305;0.0203615;12;
0.00237305;0.0202712;12;
0.00247305;0.0203658;12;
0.00257305;0.0202724;12;
0.00267305;0.0203657;12;
0.00277305;0.0202724;12;
0.00287305;0.0203658;12;
0.00297305;0.0202724;12;
0.00299;0.0203684;12;
0.00299;0.0203095;10.8;
0.00299;0.0203066;8.4;
0.00299;0.0203342;6.11493;
0.00299001;0.0203551;3.92666;
0.00299001;0.0203963;1.62997;
0.00299001;0.0204224;0;
0.00299001;0.0204276;0;
0.00299001;0.0204376;0;
0.00299001;0.0204597;0;
0.00299001;0.0204886;0;
0.00299001;0.0205169;0;
0.00299001;0.0205365;0;
0.00299001;0.0205437;0;
0.00299001;0.0205375;0;
0.00299001;0.0205204;0;
0.00299001;0.0204954;0;
0.00299001;0.0204721;0;
0.00299001;0.0204503;0;
0.00299001;0.0204289;0;
0.00299001;0.0204046;0;
0.00299001;0.0203723;0;
0.00299001;0.0203441;0;
0.00299001;0.0203074;0;
0.00299001;0.0202924;0;
0.00299001;0.0202892;0;
0.00299002;0.0203057;0;
0.00299002;0.0203154;0;
0.00299002;0.0203226;0;
0.00299003;0.0203236;0;
0.00299003;0.0203235;0;
0.00299004;0.0203231;0;
0.00299004;0.0203188;0;
0.00299004;0.0203232;0;
0.00299005;0.971339;0;
0.00299005;3.27611;0;
0.00299005;4.62385;0;
0.00299005;5.4525;0;
0.00299005;5.90143;0;
0.00299006;6.38648;0;
0.00299006;6.95384;0;
0.00299006;7.40572;0;
0.00299006;8.00518;0;
0.00299006;8.58461;0;
0.00299006;9.20156;0;
0.00299006;9.84324;0;
0.00299007;10.45;0;
0.00299007;10.8965;0;
0.00299008;11.1031;0;
0.00299008;11.2268;0;
0.00299009;11.2955;0;
0.00299009;11.3382;0;
0.0029901;11.3675;0;
0.00299011;11.3858;0;
0.00299012;11.4013;0;
0.00299013;11.4099;0;
0.00299016;11.4219;0;
0.0029902;11.4312;0;
0.00299027;11.4449;0;
0.00299041;11.4594;0;
0.00299068;11.4757;0;
0.00299122;11.492;0;
0.00299203;11.5063;0;
0.00299364;11.5215;0;
0.00299686;11.539;0;
0.003;11.5479;0;
0.003;11.5481;1.2;
0.003;11.5482;3.6;
0.003;11.5481;5.76639;
0.003;11.5481;7.70006;
0.003;11.5481;9.55714;
0.003;11.5481;12;
0.003;11.5481;12;
0.003;11.5481;12;
0.003;11.5481;12;
0.003;11.5482;12;
0.003;11.5482;12;
0.00300001;11.5482;12;
0.00300001;11.5482;12;
0.00300001;11.5482;12;
0.00300001;11.5482;12;
0.00300001;11.5482;12;
0.00300001;11.5482;12;
0.00300001;11.5482;12;
0.00300001;11.5482;12;
0.00300001;11.5482;12;
0.00300002;11.5483;12;
0.00300003;11.5483;12;
0.00300004;11.5483;12;
0.00300004;11.5483;12;
0.00300005;11.5483;12;
0.00300006;11.5484;12;
0.00300008;11.5484;12;
0.0030001;11.5485;12;
0.00300014;11.5486;12;
0.00300019;11.5487;12;
0.00300026;11.5489;12;
0.00300038;11.5491;12;
0.00300058;11.5496;12;
0.00300096;11.5505;12;
0.00300134;11.5513;12;
0.00300173;11.5522;12;
0.00300195;11.5527;12;
0.00300212;11.553;12;
0.00300221;11.5532;12;
0.00300229;11.5534;12;
0.00300235;11.5535;12;
0.00300242;11.5536;12;
0.00300249;11.5538;12;
0.00300257;11.5539;12;
0.00300271;11.5542;12;
0.00300297;11.5547;12;
0.0030035;11.5557;12;
0.00300456;11.5576;12;
0.00300667;11.561;12;
0.0030109;11.5668;12;
0.00301936;11.5755;12;
0.00303628;11.5874;12;
0.00307011;11.6017;12;
0.00309932;0.0203616;12;
0.00311209;-0.210021;12;
0.00312018;0.0205184;12;
0.00312433;0.0203019;12;
0.00312804;0.0203473;12;
0.0031306;0.0203094;12;
0.00313279;0.0203347;12;
0.00313446;0.0203133;12;
0.0031362;0.0203327;12;
0.00313787;0.0203147;12;
0.00313983;0.020332;12;
0.00314229;0.0203151;12;
0.00314564;0.0203318;12;
0.00315064;0.0203152;12;
0.0031584;0.0203317;12;
0.00317099;0.0203152;12;
0.00319189;0.0203317;12;
0.003227;0.0203153;12;
0.00328675;0.0203317;12;
0.00338675;0.0203153;12;
0.00348675;0.0203317;12;
0.00358675;0.0203153;12;
0.00368675;0.0203317;12;
0.00378675;0.0203153;12;
0.00388675;0.0203317;12;
0.00398675;0.0203153;12;
0.00399;0.0203316;12;
0.00399;0.0203252;10.8;
0.00399;0.0203295;8.4;
0.00399;0.0203446;6.11512;
0.00399001;0.020367;3.92796;
0.00399001;0.0204003;1.63279;
0.00399001;0.020428;0;
0.00399001;0.0204321;0;
0.00399001;0.0204412;0;
0.00399001;0.0204631;0;
0.00399001;0.0204912;0;
0.00399001;0.020519;0;
0.00399001;0.0205379;0;
0.00399001;0.0205449;0;
0.00399001;0.0205382;0;
0.00399001;0.020521;0;
0.00399001;0.0204958;0;
0.00399001;0.0204725;0;
0.00399001;0.0204507;0;
0.00399001;0.0204293;0;
0.00399001;0.020405;0;
0.00399001;0.0203727;0;
0.00399001;0.0203444;0;
0.00399001;0.0203077;0;
0.00399001;0.0202927;0;
0.00399001;0.0202895;0;
0.00399002;0.0203059;0;
0.00399002;0.0203155;0;
0.00399002;0.0203227;0;
0.00399003;0.0203237;0;
0.00399003;0.0203236;0;
0.00399004;0.0203231;0;
0.00399004;0.0203188;0;
0.00399005;0.50265;0;
0.00399005;2.58064;0;
0.00399005;4.35321;0;
0.00399005;5.6086;0;
0.00399005;6.1452;0;
0.00399005;6.41351;0;
0.00399005;6.72824;0;
0.00399005;7.02891;0;
0.00399005;7.30577;0;
0.00399006;7.61049;0;
0.00399006;7.91699;0;
0.00399006;8.27514;0;
0.00399006;8.7181;0;
0.00399006;9.27512;0;
0.00399006;9.8909;0;
0.00399007;10.5003;0;
0.00399007;10.9819;0;
0.00399008;11.1713;0;
0.00399008;11.2633;0;
0.00399009;11.3161;0;
0.00399009;11.3457;0;
0.0039901;11.3708;0;
0.00399011;11.3856;0;
0.00399012;11.3984;0;
0.00399013;11.4081;0;
0.00399015;11.4168;0;
0.00399018;11.4267;0;
0.00399023;11.4393;0;
0.00399035;11.4546;0;
0.00399058;11.4709;0;
0.00399098;11.486;0;
0.00399174;11.5019;0;
0.00399302;11.5169;0;
0.00399559;11.5332;0;
0.004;11.5485;0;
0.004;11.5485;1.2;
0.004;11.5484;3.6;
0.004;11.5484;5.76424;
0.004;11.5484;7.69716;
0.004;11.5484;9.55486;
0.004;11.5484;12;
0.004;11.5484;12;
0.004;11.5484;12;
0.004;11.5484;12;
0.004;11.5484;12;
0.004;11.5484;12;
0.00400001;11.5485;12;
0.00400001;11.5485;12;
0.00400001;11.5485;12;
0.00400001;11.5485;12;
0.00400001;11.5485;12;
0.00400001;11.5485;12;
0.00400001;11.5485;12;
0.00400001;11.5485;12;
0.00400001;11.5485;12;
0.00400002;11.5485;12;
0.00400003;11.5485;12;
0.00400004;11.5485;12;
0.00400004;11.5485;12;
0.00400005;11.5486;12;
0.00400006;11.5486;12;
0.00400008;11.5486;12;
0.0040001;11.5487;12;
0.00400014;11.5488;12;
0.00400019;11.5489;12;
0.00400026;11.5491;12;
0.00400038;11.5494;12;
0.00400059;11.5499;12;
0.00400101;11.5508;12;
0.00400138;11.5516;12;
0.00400173;11.5524;12;
0.00400188;11.5527;12;
0.00400199;11.5529;12;
0.00400206;11.5531;12;
0.00400214;11.5532;12;
0.00400221;11.5534;12;
0.00400229;11.5535;12;
0.00400238;11.5537;12;
0.0040025;11.554;12;
0.00400264;11.5542;12;
0.00400287;11.5547;12;
0.00400326;11.5554;12;
0.00400405;11.5569;12;
0.00400561;11.5595;12;
0.00400875;11.5641;12;
0.00401502;11.5715;12;
0.00402756;11.582;12;
0.00405265;11.5953;12;
0.0040685;11.601;12;
0.00409273;11.6077;12;
0.00409486;11.6082;12;
0.00409913;0.0204143;12;
0.00410141;0.020314;12;
0.00410358;0.0204143;12;
0.00410665;0.0203134;12;
0.00410815;0.0203643;12;
0.00410956;0.0202769;12;
0.00411004;0.0203608;12;
0.00411063;0.0202851;12;
0.00411122;0.0203625;12;
0.00411196;0.0202847;12;
0.00411336;0.0203626;12;
0.00411489;0.0202846;12;
0.00411745;0.0203627;12;
0.00412174;0.0202846;12;
0.00412949;0.0203628;12;
0.00414498;0.0202845;12;
0.00417597;0.0203628;12;
0.00423794;0.0202752;12;
0.00433794;0.0203575;12;
0.00443794;0.0202809;12;
0.00453794;0.0203597;12;
0.00463794;0.0202808;12;
0.00473794;0.0203597;12;
0.00483794;0.0202808;12;
0.00493794;0.0203597;12;
0.00499;0.0202825;12;
0.00499;0.0203385;10.8;
0.00499;0.0203519;8.4;
0.00499;0.020352;6.11575;
0.00499001;0.0203771;3.9291;
0.00499001;0.0204017;1.63298;
0.00499001;0.0204319;0;
0.00499001;0.0204349;0;
0.00499001;0.0204429;0;
0.00499001;0.0204644;0;
0.00499001;0.0204919;0;
0.00499001;0.0205195;0;
0.00499001;0.0205382;0;
0.00499001;0.0205452;0;
0.00499001;0.0205385;0;
0.00499001;0.0205215;0;
0.00499001;0.0204964;0;
0.00499001;0.0204731;0;
0.00499001;0.0204513;0;
0.00499001;0.02043;0;
0.00499001;0.0204056;0;
0.00499001;0.0203732;0;
0.00499001;0.0203447;0;
0.00499001;0.0203077;0;
0.00499001;0.0202925;0;
0.00499001;0.0202891;0;
0.00499002;0.0203056;0;
0.00499002;0.0203153;0;
0.00499002;0.0203226;0;
0.00499003;0.0203236;0;
0.00499003;0.0203235;0;
0.00499004;0.0203231;0;
0.00499004;0.0203188;0;
0.00499004;0.0203232;0;
0.00499005;0.971605;0;
0.00499005;3.27903;0;
0.00499005;4.61692;0;
0.00499005;5.44542;0;
0.00499005;5.89636;0;
0.00499006;6.38275;0;
0.00499006;6.95195;0;
0.00499006;7.4061;0;
0.00499006;8.00848;0;
0.00499006;8.59101;0;
0.00499006;9.21134;0;
0.00499006;9.85584;0;
0.00499007;10.4638;0;
0.00499007;10.8991;0;
0.00499008;11.1041;0;
0.00499008;11.2272;0;
0.00499009;11.2962;0;
0.00499009;11.3385;0;
0.0049901;11.3675;0;
0.00499011;11.3858;0;
0.00499012;11.4012;0;
0.00499013;11.4098;0;
0.00499016;11.4218;0;
0.0049902;11.4312;0;
0.00499027;11.4449;0;
0.00499041;11.4595;0;
0.00499069;11.476;0;
0.00499123;11.4923;0;
0.00499204;11.5066;0;
0.00499366;11.5216;0;
0.00499689;11.5391;0;
0.005;11.5479;0;
0.005;11.5481;1.2;
0.005;11.5482;3.6;
0.005;11.5481;5.7664;
0.005;11.5481;7.70007;
0.005;11.5481;9.55715;
0.005;11.5481;12;
0.005;11.5481;12;
0.005;11.5481;12;
0.005;11.5481;12;
0.005;11.5482;12;
0.005;11.5482;12;
0.00500001;11.5482;12;
0.00500001;11.5482;12;
0.00500001;11.5482;12;
0.00500001;11.5482;12;
0.00500001;11.5482;12;
0.00500001;11.5482;12;
0.00500001;11.5482;12;
0.00500001;11.5482;12;
0.00500001;11.5482;12;
0.00500002;11.5483;12;
0.00500003;11.5483;12;
0.00500004;11.5483;12;
0.00500004;11.5483;12;
0.00500005;11.5483;12;
0.00500006;11.5484;12;
0.00500008;11.5484;12;
0.0050001;11.5485;12;
0.00500014;11.5485;12;
0.00500019;11.5487;12;
0.00500026;11.5489;12;
0.00500038;11.5491;12;
0.00500058;11.5496;12;
0.00500096;11.5505;12;
0.00500134;11.5513;12;
0.00500173;11.5522;12;
0.00500195;11.5527;12;
0.00500212;11.553;12;
0.00500221;11.5532;12;
0.00500229;11.5534;12;
0.00500235;11.5535;12;
0.00500242;11.5536;12;
0.00500249;11.5537;12;
0.00500257;11.5539;12;
0.00500271;11.5542;12;
0.00500297;11.5547;12;
0.0050035;11.5557;12;
0.00500455;11.5576;12;
0.00500666;11.561;12;
0.00501086;11.5667;12;
0.00501928;11.5755;12;
0.00503612;11.5873;12;
0.00506979;11.6016;12;
0.00509368;11.6126;12;
0.00510892;0.0203837;12;
0.00511638;0.0209328;12;
0.00511989;0.0204302;12;
0.00512176;0.0203034;12;
0.00512381;0.0203357;12;
0.00512618;0.0203109;12;
0.00512712;0.0203364;12;
0.00512867;0.0203105;12;
0.00513176;0.0203365;12;
