time;V(U_a);V(U_e);
0;8.29328;0;
2e-11;8.29328;0;
4e-11;8.29328;0;
8e-11;8.29328;0;
1.6e-10;8.29328;0;
3.2e-10;8.29328;0;
6.4e-10;8.29328;0;
1.28e-09;8.29328;0;
2e-09;8.29328;0;
2.01187e-09;8.29328;0.0712412;
2.03562e-09;8.29328;0.213724;
2.08311e-09;8.29328;0.498689;
2.14936e-09;8.29329;0.896183;
2.28186e-09;8.29343;1.69117;
2.45817e-09;8.29384;2.74904;
2.6228e-09;8.2941;3.7368;
2.85167e-09;8.29382;5.11002;
3.19957e-09;8.29089;7.1974;
3.54879e-09;8.28224;9.29273;
3.92263e-09;8.26359;11.5358;
4e-09;8.25839;12;
4.04176e-09;8.2553;12;
4.12528e-09;8.24885;12;
4.29232e-09;8.23421;12;
4.50091e-09;8.21263;12;
4.7168e-09;8.18632;12;
4.99049e-09;8.1471;12;
5.33496e-09;8.0888;12;
5.73843e-09;8.00902;12;
6.15195e-09;7.9163;12;
6.81039e-09;7.75458;12;
7.8248e-09;7.5285;12;
8.98267e-09;7.45095;12;
1.0638e-08;7.84474;12;
1.16526e-08;8.23684;12;
1.25831e-08;8.53557;12;
1.35128e-08;8.8131;12;
1.43795e-08;9.07916;12;
1.52366e-08;9.32809;12;
1.61545e-08;9.56647;12;
1.71059e-08;9.78435;12;
1.82111e-08;10.0045;12;
1.96322e-08;10.2427;12;
2.15595e-08;10.4994;12;
2.4275e-08;10.763;12;
2.83077e-08;11.0131;12;
3.30372e-08;11.1775;12;
3.80581e-08;11.2711;12;
4.29562e-08;11.3213;12;
4.76179e-08;11.3499;12;
5.21234e-08;11.3675;12;
5.8343e-08;11.383;12;
6.52633e-08;11.3936;12;
7.55643e-08;11.4034;12;
8.68492e-08;11.4103;12;
1.06939e-07;11.4191;12;
1.3163e-07;11.4269;12;
1.65297e-07;11.4351;12;
1.88683e-07;11.0687;12;
2.06153e-07;0.512145;12;
2.19599e-07;0.0126179;12;
2.32412e-07;0.0709638;12;
2.42195e-07;0.0116939;12;
2.48232e-07;0.0325695;12;
2.5219e-07;0.0111767;12;
2.55408e-07;0.0323177;12;
2.58782e-07;0.0118022;12;
2.61893e-07;0.03153;12;
2.66336e-07;0.0122366;12;
2.73352e-07;0.0310419;12;
2.83915e-07;0.0123986;12;
2.93814e-07;0.0308202;12;
3.05245e-07;0.0125202;12;
3.18653e-07;0.0306288;12;
3.4547e-07;0.0126005;12;
3.99102e-07;0.030546;12;
5.06366e-07;0.0126433;12;
6.72186e-07;0.0304745;12;
9.22379e-07;0.0126803;12;
1.37613e-06;0.0304183;12;
1.83621e-06;0.0126959;12;
2.6511e-06;0.0304369;12;
3.27323e-06;0.0127;12;
3.83913e-06;0.0304327;12;
4.46811e-06;0.0126997;12;
5.10184e-06;0.0304287;12;
6.10184e-06;0.0127003;12;
7.10184e-06;0.0304266;12;
8.10184e-06;0.0127037;12;
9.10184e-06;0.0304245;12;
1.01018e-05;0.0124719;12;
1.11018e-05;0.0308339;12;
1.14422e-05;0.0124221;12;
1.19663e-05;0.0307679;12;
1.27283e-05;0.012425;12;
1.36491e-05;0.0307759;12;
1.46491e-05;0.0124239;12;
1.56491e-05;0.0307754;12;
1.66491e-05;0.0124277;12;
1.76491e-05;0.0307732;12;
1.86491e-05;0.0124288;12;
1.96491e-05;0.0307709;12;
2.06491e-05;0.01243;12;
2.16491e-05;0.0307686;12;
2.26491e-05;0.0124311;12;
2.36491e-05;0.0307663;12;
2.46491e-05;0.0124323;12;
2.56491e-05;0.0307641;12;
2.66491e-05;0.0124335;12;
2.76491e-05;0.0307618;12;
2.86491e-05;0.0124346;12;
2.96491e-05;0.0307595;12;
3.06491e-05;0.0124358;12;
3.16491e-05;0.0307573;12;
3.26491e-05;0.012437;12;
3.36491e-05;0.030755;12;
3.46491e-05;0.0124381;12;
3.56491e-05;0.0307528;12;
3.66491e-05;0.0124393;12;
3.76491e-05;0.0307505;12;
3.86491e-05;0.0124405;12;
3.96491e-05;0.0307483;12;
4.06491e-05;0.0124416;12;
4.16491e-05;0.030746;12;
4.26491e-05;0.0124428;12;
4.36491e-05;0.0307438;12;
4.46491e-05;0.012444;12;
4.56491e-05;0.0307416;12;
4.66491e-05;0.0124451;12;
4.76491e-05;0.0307393;12;
4.86491e-05;0.0124463;12;
4.96491e-05;0.0307371;12;
5.06491e-05;0.0124475;12;
5.16491e-05;0.0307349;12;
5.26491e-05;0.0124486;12;
5.36491e-05;0.0307326;12;
5.46491e-05;0.0124498;12;
5.56491e-05;0.0307304;12;
5.66491e-05;0.012451;12;
5.76491e-05;0.0307282;12;
5.86491e-05;0.0124521;12;
5.96491e-05;0.0307259;12;
6.06491e-05;0.0124533;12;
6.16491e-05;0.0307237;12;
6.26491e-05;0.0124545;12;
6.36491e-05;0.0307215;12;
6.46491e-05;0.0124556;12;
6.56491e-05;0.0307193;12;
6.66491e-05;0.0124568;12;
6.76491e-05;0.0307171;12;
6.86491e-05;0.012458;12;
6.96491e-05;0.0307149;12;
7.06491e-05;0.0124591;12;
7.16491e-05;0.0307126;12;
7.26491e-05;0.0124603;12;
7.36491e-05;0.0307104;12;
7.46491e-05;0.0124614;12;
7.56491e-05;0.0307082;12;
7.66491e-05;0.0124626;12;
7.76491e-05;0.030706;12;
7.86491e-05;0.0124637;12;
7.96491e-05;0.0307038;12;
8.06491e-05;0.0124649;12;
8.16491e-05;0.0307016;12;
8.26491e-05;0.0124661;12;
8.36491e-05;0.0306994;12;
8.46491e-05;0.0124672;12;
8.56491e-05;0.0306972;12;
8.66491e-05;0.0124684;12;
8.76491e-05;0.030695;12;
8.86491e-05;0.0124695;12;
8.96491e-05;0.0306928;12;
9.06491e-05;0.0124707;12;
9.16491e-05;0.0306906;12;
9.26491e-05;0.0124718;12;
9.36491e-05;0.0306884;12;
9.46491e-05;0.012473;12;
9.56491e-05;0.0306862;12;
9.66491e-05;0.0124741;12;
9.76491e-05;0.030684;12;
9.86491e-05;0.0124753;12;
9.96491e-05;0.0306818;12;
0.000100649;0.0124764;12;
0.000101649;0.0306796;12;
0.000102649;0.0124776;12;
0.000103649;0.0306774;12;
0.000104649;0.0124787;12;
0.000105649;0.0306752;12;
0.000106649;0.0124799;12;
0.000107649;0.030673;12;
0.000108649;0.012481;12;
0.000109649;0.0306708;12;
0.000110649;0.0124822;12;
0.000111649;0.0306686;12;
0.000112649;0.0124833;12;
0.000113649;0.0306664;12;
0.000114649;0.0124845;12;
0.000115649;0.0306642;12;
0.000116649;0.0124856;12;
0.000117649;0.0306621;12;
0.000118649;0.0124868;12;
0.000119649;0.0306599;12;
0.000120649;0.0124879;12;
0.000121649;0.0306577;12;
0.000122649;0.012489;12;
0.000123649;0.0306555;12;
0.000124649;0.0124902;12;
0.000125649;0.0306533;12;
0.000126649;0.0124913;12;
0.000127649;0.0306511;12;
0.000128649;0.0124925;12;
0.000129649;0.030649;12;
0.000130649;0.0124936;12;
0.000131649;0.0306468;12;
0.000132649;0.0124947;12;
0.000133649;0.0306446;12;
0.000134649;0.0124959;12;
0.000135649;0.0306424;12;
0.000136649;0.012497;12;
0.000137649;0.0306403;12;
0.000138649;0.0124981;12;
0.000139649;0.0306381;12;
0.000140649;0.0124993;12;
0.000141649;0.0306359;12;
0.000142649;0.0125004;12;
0.000143649;0.0306337;12;
0.000144649;0.0125016;12;
0.000145004;0.0306143;12;
0.000145004;0.0212482;10.8;
0.000145005;0.0196484;8.4;
0.000145005;0.0209076;6.20157;
0.000145005;0.0199567;4.19589;
0.000145006;0.0207379;2.11977;
0.000145006;0.0201716;0.301617;
0.000145006;0.0204935;0;
0.000145006;0.020459;0;
0.000145006;0.0204339;0;
0.000145006;0.0204526;0;
0.000145006;0.0204728;0;
0.000145006;0.0204999;0;
0.000145007;0.0205245;0;
0.000145007;0.0205456;0;
0.000145007;0.0205518;0;
0.000145007;0.0205467;0;
0.000145008;0.0205281;0;
0.000145008;0.0205042;0;
0.000145008;0.0204818;0;
0.000145008;0.0204586;0;
0.000145009;0.0204284;0;
0.000145009;0.0203988;0;
0.000145009;0.0203599;0;
0.00014501;0.0203313;0;
0.000145011;0.0203033;0;
0.000145012;0.0202993;0;
0.000145015;0.0203103;0;
0.000145019;0.0203216;0;
0.000145024;0.0203271;0;
0.000145033;0.0203281;0;
0.000145043;0.0203178;0;
0.000145052;2.71932;0;
0.000145057;6.89181;0;
0.000145063;9.32732;0;
0.000145065;9.80287;0;
0.000145066;9.9868;0;
0.000145067;10.1944;0;
0.000145068;10.3342;0;
0.000145069;10.466;0;
0.000145071;10.6178;0;
0.000145073;10.7841;0;
0.000145075;10.939;0;
0.000145079;11.098;0;
0.000145083;11.2231;0;
0.00014509;11.3086;0;
0.000145098;11.3607;0;
0.000145107;11.3847;0;
0.000145117;11.3984;0;
0.00014513;11.4074;0;
0.000145152;11.4184;0;
0.00014518;11.4272;0;
0.000145237;11.4396;0;
0.000145351;11.454;0;
0.000145578;11.4706;0;
0.000146033;11.4875;0;
0.000146941;11.5054;0;
0.000147941;11.5159;0;
0.000148941;11.5237;0;
0.000149941;11.5292;0;
0.000150002;11.5298;0;
0.000150002;11.5297;1.2;
0.000150003;11.5296;3.6;
0.000150003;11.5296;5.76358;
0.000150003;11.5296;7.69738;
0.000150004;11.5296;9.5574;
0.000150004;11.5296;12;
0.000150004;11.5296;12;
0.000150004;11.5296;12;
0.000150004;11.5296;12;
0.000150005;11.5296;12;
0.000150005;11.5297;12;
0.000150005;11.5297;12;
0.000150005;11.5297;12;
0.000150006;11.5297;12;
0.000150006;11.5297;12;
0.000150007;11.5297;12;
0.000150008;11.5297;12;
0.00015001;11.5297;12;
0.000150012;11.5297;12;
0.000150015;11.5297;12;
0.000150021;11.5297;12;
0.000150029;11.5298;12;
0.000150036;11.5298;12;
0.000150043;11.5299;12;
0.000150051;11.5299;12;
0.000150063;11.53;12;
0.000150082;11.5301;12;
0.000150108;11.5302;12;
0.000150146;11.5304;12;
0.000150201;11.5306;12;
0.000150281;11.531;12;
0.000150413;11.5317;12;
0.000150655;11.5328;12;
0.000151138;11.5349;12;
0.000151437;11.5361;12;
0.000151751;11.5373;12;
0.00015193;11.538;12;
0.000152071;11.5385;12;
0.00015221;11.539;12;
0.000152434;11.5398;12;
0.000152642;11.5405;12;
0.000152921;11.5414;12;
0.000153278;11.5425;12;
0.000153735;11.5439;12;
0.000154402;11.5458;12;
0.000155402;11.5484;12;
0.000156402;11.5508;12;
0.000157402;11.5529;12;
0.000158402;11.5549;12;
0.000159402;11.5568;12;
0.000160402;11.5585;12;
0.000161402;11.5601;12;
0.000162402;11.5616;12;
0.000163402;11.5631;12;
0.000164402;11.5644;12;
0.000165402;11.5657;12;
0.000166402;11.567;12;
0.000167402;11.5681;12;
0.000168402;11.5693;12;
0.000169402;11.5703;12;
0.000170402;11.5714;12;
0.000171402;11.5724;12;
0.000172402;11.5733;12;
0.000173402;11.5742;12;
0.000174402;11.5751;12;
0.000175402;11.576;12;
0.000176402;11.5768;12;
0.000177402;11.5776;12;
0.000178402;11.5784;12;
0.000179402;11.5792;12;
0.000180402;11.5799;12;
0.000181402;11.5806;12;
0.000182402;11.5813;12;
0.000183402;11.582;12;
0.000184402;11.5826;12;
0.000185402;11.5833;12;
0.000186402;11.5839;12;
0.000187402;11.5845;12;
0.000188402;11.5851;12;
0.000189402;11.5857;12;
0.000190402;11.5863;12;
0.000191402;11.5868;12;
0.000192402;11.5874;12;
0.000193402;11.5879;12;
0.000194402;11.5884;12;
0.000195402;11.589;12;
0.000196402;11.5895;12;
0.000197402;11.59;12;
0.000198402;11.5904;12;
0.000199402;11.5909;12;
0.000200402;11.5914;12;
0.000201363;11.5918;12;
0.000202276;11.5922;12;
0.000203172;11.5926;12;
0.00020403;11.593;12;
0.000204867;11.5934;12;
0.000205678;11.5937;12;
0.000206518;11.594;12;
0.000207444;11.5944;12;
0.000208444;11.5948;12;
0.000209444;11.5952;12;
0.000210444;11.5956;12;
0.000211444;11.596;12;
0.000212444;11.5964;12;
0.000213444;11.5968;12;
0.000214444;11.5971;12;
0.000215444;11.5975;12;
0.000216444;11.5979;12;
0.000217444;11.5982;12;
0.000218444;11.5986;12;
0.000219444;11.5989;12;
0.000220444;11.5993;12;
0.000221444;11.5996;12;
0.000222444;11.5999;12;
0.000223444;11.6002;12;
0.000224444;0.0205586;12;
0.000225123;0.0201949;12;
0.000225754;0.0205603;12;
0.00022641;0.0201939;12;
0.000227241;0.0205605;12;
0.000228241;0.0201934;12;
0.000229241;0.0205613;12;
0.000230241;0.0201927;12;
0.000231241;0.0205619;12;
0.000232241;0.0201921;12;
0.000233241;0.0205615;12;
0.000234241;0.0201332;12;
0.000235145;0.0204981;12;
0.000235435;0.0201497;12;
0.000235852;0.0205115;12;
0.000236326;0.0201506;12;
0.000236898;0.0205121;12;
0.000237898;0.0201498;12;
0.000238898;0.0205127;12;
0.000239898;0.0201492;12;
0.000240898;0.0205133;12;
0.000241898;0.0201486;12;
0.000242898;0.0205138;12;
0.000243898;0.020148;12;
0.000244898;0.0205143;12;
0.000245898;0.0201475;12;
0.000246898;0.0205149;12;
0.000247898;0.0201469;12;
0.000248898;0.0205154;12;
0.000249898;0.0201463;12;
0.000250898;0.0205159;12;
0.000251898;0.0201457;12;
0.000252898;0.0205165;12;
0.000253898;0.0201451;12;
0.000254898;0.020517;12;
0.000255898;0.0201446;12;
0.000256898;0.0205175;12;
0.000257898;0.020144;12;
0.000258898;0.0205181;12;
0.000259898;0.0201434;12;
0.000260898;0.0205186;12;
0.000261898;0.0201428;12;
0.000262898;0.0205191;12;
0.000263898;0.0201423;12;
0.000264898;0.0205197;12;
0.000265898;0.0201417;12;
0.000266898;0.0205202;12;
0.000267898;0.0201411;12;
0.000268898;0.0205207;12;
0.000269898;0.0201406;12;
0.000270898;0.0205212;12;
0.000271898;0.02014;12;
0.000272898;0.0205217;12;
0.000273898;0.0201394;12;
0.000274898;0.0205223;12;
0.000275898;0.0201389;12;
0.000276898;0.0205228;12;
0.000277898;0.0201383;12;
0.000278898;0.0205233;12;
0.000279898;0.0201377;12;
0.000280898;0.0205238;12;
0.000281898;0.0201372;12;
0.000282898;0.0205243;12;
0.000283898;0.0201366;12;
0.000284898;0.0205248;12;
0.000285898;0.020136;12;
0.000286898;0.0205253;12;
0.000287898;0.0201355;12;
0.000288898;0.0205259;12;
0.000289898;0.0201349;12;
0.000290898;0.0205264;12;
0.000291898;0.0201344;12;
0.000292898;0.0205269;12;
0.000293898;0.0201338;12;
0.000294898;0.0205274;12;
0.000295004;0.020131;12;
0.000295004;0.0203575;10.8;
0.000295005;0.0204032;8.4;
0.000295005;0.0203718;6.20394;
0.000295005;0.0204076;4.20008;
0.000295006;0.0204094;2.12755;
0.000295006;0.0204452;0.312332;
0.000295006;0.0204425;0;
0.000295006;0.0204448;0;
0.000295006;0.0204489;0;
0.000295006;0.0204581;0;
0.000295006;0.0204808;0;
0.000295006;0.0205041;0;
0.000295007;0.0205294;0;
0.000295007;0.0205479;0;
0.000295007;0.0205545;0;
0.000295007;0.0205478;0;
0.000295008;0.0205297;0;
0.000295008;0.020505;0;
0.000295008;0.0204831;0;
0.000295008;0.0204594;0;
0.000295009;0.0204293;0;
0.000295009;0.0203991;0;
0.000295009;0.02036;0;
0.00029501;0.020331;0;
0.000295011;0.0203032;0;
0.000295012;0.0202992;0;
0.000295015;0.0203107;0;
0.000295019;0.0203216;0;
0.000295025;0.0203273;0;
0.000295034;0.0203279;0;
0.000295035;0.0203278;0;
0.000295037;0.0203272;0;
0.000295041;0.0203224;0;
0.000295045;0.020328;0;
0.000295048;0.679309;0;
0.00029505;2.71369;0;
0.000295051;3.92351;0;
0.000295052;4.69593;0;
0.000295053;5.20506;0;
0.000295054;5.70974;0;
0.000295054;6.2188;0;
0.000295055;6.73787;0;
0.000295056;7.30571;0;
0.000295058;7.84742;0;
0.000295059;8.4775;0;
0.000295061;9.11974;0;
0.000295064;9.7868;0;
0.000295067;10.4252;0;
0.000295072;10.8859;0;
0.000295078;11.1335;0;
0.000295083;11.247;0;
0.000295087;11.3011;0;
0.000295092;11.3381;0;
0.000295098;11.3649;0;
0.000295104;11.3815;0;
0.000295111;11.392;0;
0.000295123;11.4037;0;
0.000295133;11.4095;0;
0.000295155;11.4197;0;
0.00029518;11.4268;0;
0.000295231;11.4387;0;
0.000295332;11.4519;0;
0.000295529;11.4679;0;
0.000295923;11.484;0;
0.00029671;11.502;0;
0.00029771;11.5135;0;
0.00029871;11.5223;0;
0.00029971;11.5277;0;
0.000300002;11.53;0;
0.000300002;11.5297;1.2;
0.000300003;11.5295;3.6;
0.000300003;11.5295;5.76303;
0.000300003;11.5295;7.69615;
0.000300004;11.5295;9.55621;
0.000300004;11.5295;12;
0.000300004;11.5295;12;
0.000300004;11.5295;12;
0.000300004;11.5295;12;
0.000300005;11.5295;12;
0.000300005;11.5296;12;
0.000300005;11.5296;12;
0.000300005;11.5296;12;
0.000300006;11.5296;12;
0.000300006;11.5296;12;
0.000300007;11.5296;12;
0.000300008;11.5296;12;
0.00030001;11.5296;12;
0.000300012;11.5296;12;
0.000300015;11.5296;12;
0.000300021;11.5297;12;
0.000300029;11.5297;12;
0.000300036;11.5298;12;
0.000300043;11.5298;12;
0.000300051;11.5298;12;
0.000300063;11.5299;12;
0.000300082;11.53;12;
0.000300108;11.5301;12;
0.000300146;11.5303;12;
0.000300201;11.5306;12;
0.000300281;11.531;12;
0.000300413;11.5316;12;
0.000300655;11.5327;12;
0.000301138;11.5348;12;
0.000301437;11.536;12;
0.000301751;11.5373;12;
0.00030193;11.5379;12;
0.000302072;11.5385;12;
0.000302211;11.5389;12;
0.000302437;11.5397;12;
0.000302646;11.5405;12;
0.000302928;11.5414;12;
0.000303292;11.5425;12;
0.00030376;11.5439;12;
0.000304448;11.5459;12;
0.000305448;11.5485;12;
0.000306448;11.5508;12;
0.000307448;11.553;12;
0.000308448;11.555;12;
0.000309448;11.5568;12;
0.000310448;11.5585;12;
0.000311448;11.5602;12;
0.000312448;11.5617;12;
0.000313448;11.5631;12;
0.000314448;11.5645;12;
0.000315448;11.5658;12;
0.000316448;11.567;12;
0.000317448;11.5682;12;
0.000318448;11.5693;12;
0.000319448;11.5704;12;
0.000320448;11.5714;12;
0.000321448;11.5724;12;
0.000322448;11.5733;12;
0.000323448;11.5743;12;
0.000324448;11.5752;12;
0.000325448;11.576;12;
0.000326448;11.5768;12;
0.000327448;11.5776;12;
0.000328448;11.5784;12;
0.000329448;11.5792;12;
0.000330448;11.5799;12;
0.000331448;11.5806;12;
0.000332448;11.5813;12;
0.000333448;11.582;12;
0.000334448;11.5827;12;
0.000335448;11.5833;12;
0.000336448;11.5839;12;
0.000337448;11.5845;12;
0.000338448;11.5851;12;
0.000339448;11.5857;12;
0.000340448;11.5863;12;
0.000341448;11.5869;12;
0.000342448;11.5874;12;
0.000343448;11.5879;12;
0.000344448;11.5885;12;
0.000345448;11.589;12;
0.000346448;11.5895;12;
0.000347448;11.59;12;
0.000348448;11.5905;12;
0.000349448;11.5909;12;
0.000350448;11.5914;12;
0.000351448;11.5918;12;
0.000352389;11.5923;12;
0.000353307;11.5927;12;
0.000354194;11.5931;12;
0.000355051;11.5934;12;
0.000355887;11.5938;12;
0.000356699;11.5941;12;
0.000357555;11.5945;12;
0.000358501;11.5949;12;
0.000359501;11.5953;12;
0.000360501;11.5956;12;
0.000361501;11.596;12;
0.000362501;11.5964;12;
0.000363501;11.5968;12;
0.000364501;11.5972;12;
0.000365501;11.5975;12;
0.000366501;11.5979;12;
0.000367501;11.5982;12;
0.000368501;11.5986;12;
0.000369501;11.5989;12;
0.000370501;11.5993;12;
0.000371501;11.5996;12;
0.000372501;11.5999;12;
0.000373501;11.6003;12;
0.000374501;0.0205595;12;
0.000375156;0.0201948;12;
0.000375759;0.0205605;12;
0.000376392;0.0201938;12;
0.000377246;0.0205606;12;
0.000378246;0.0201933;12;
0.000379246;0.0205615;12;
0.000380246;0.0201926;12;
0.000381246;0.0205621;12;
0.000382246;0.020192;12;
0.000383246;0.0205624;12;
0.000384246;0.0201324;12;
0.000385153;0.0205025;12;
0.000385435;0.020151;12;
0.000385865;0.0205114;12;
0.000386439;0.0201508;12;
0.000387087;0.0205119;12;
0.000388087;0.02015;12;
0.000389087;0.0205125;12;
0.000390087;0.0201494;12;
0.000391087;0.020513;12;
0.000392087;0.0201489;12;
0.000393087;0.0205136;12;
0.000394087;0.0201483;12;
0.000395087;0.0205141;12;
0.000396087;0.0201477;12;
0.000397087;0.0205147;12;
0.000398087;0.0201471;12;
0.000399087;0.0205152;12;
0.000400087;0.0201465;12;
0.000401087;0.0205157;12;
0.000402087;0.020146;12;
0.000403087;0.0205163;12;
0.000404087;0.0201454;12;
0.000405087;0.0205168;12;
0.000406087;0.0201448;12;
0.000407087;0.0205174;12;
0.000408087;0.0201442;12;
0.000409087;0.0205179;12;
0.000410087;0.0201436;12;
0.000411087;0.0205184;12;
0.000412087;0.0201431;12;
0.000413087;0.020519;12;
0.000414087;0.0201425;12;
0.000415087;0.0205195;12;
0.000416087;0.0201419;12;
0.000417087;0.02052;12;
0.000418087;0.0201413;12;
0.000419087;0.0205205;12;
0.000420087;0.0201408;12;
0.000421087;0.0205211;12;
0.000422087;0.0201402;12;
0.000423087;0.0205216;12;
0.000424087;0.0201396;12;
0.000425087;0.0205221;12;
0.000426087;0.020139;12;
0.000427087;0.0205226;12;
0.000428087;0.0201385;12;
0.000429087;0.0205232;12;
0.000430087;0.0201379;12;
0.000431087;0.0205237;12;
0.000432087;0.0201373;12;
0.000433087;0.0205242;12;
0.000434087;0.0201368;12;
0.000435087;0.0205247;12;
0.000436087;0.0201362;12;
0.000437087;0.0205252;12;
0.000438087;0.0201356;12;
0.000439087;0.0205257;12;
0.000440087;0.0201351;12;
0.000441087;0.0205262;12;
0.000442087;0.0201345;12;
0.000443087;0.0205267;12;
0.000444087;0.020134;12;
0.000445004;0.0205273;12;
0.000445018;0.0203453;0;
0.000445047;6.37986;0;
0.000445062;11.1023;0;
0.00044507;11.4597;0;
0.000445073;11.4425;0;
0.000445075;11.4462;0;
0.000445076;11.4428;0;
0.000445076;11.4415;0;
0.000445076;11.4412;0;
0.000445077;11.4407;0;
0.000445077;11.4398;0;
0.000445078;11.4386;0;
0.000445079;11.4367;0;
0.000445081;11.434;0;
0.000445083;11.4313;0;
0.000445087;11.4278;0;
0.000445094;11.425;0;
0.000445102;11.425;0;
0.00044511;11.4263;0;
0.000445121;11.4286;0;
0.000445136;11.432;0;
0.000445157;11.4363;0;
0.000445193;11.4422;0;
0.000445264;11.4513;0;
0.000445407;11.4633;0;
0.000445596;11.4737;0;
0.000445815;11.482;0;
0.000446074;11.4893;0;
0.000446592;11.4997;0;
0.000447455;11.5111;0;
0.000448455;11.52;0;
0.000449455;11.5266;0;
0.000450002;11.5295;0;
0.00045001;11.5296;12;
0.000450025;11.5297;12;
0.000450034;11.5297;12;
0.000450041;11.5297;12;
0.000450049;11.5298;12;
