time;V(U_a);V(U_tr);
0;4.33131;4.33134;
1e-09;4.33131;4.33134;
2e-09;4.33131;4.33134;
4e-09;4.33131;4.33134;
8e-09;4.3313;4.33134;
1.6e-08;4.33133;4.33134;
3.2e-08;4.33128;4.33134;
6.4e-08;4.33134;4.33134;
1.28e-07;4.33127;4.33134;
2.28e-07;4.33135;4.33134;
3.28e-07;4.33126;4.33134;
4.28e-07;4.33132;4.33134;
5.28e-07;4.3308;4.33134;
6.28e-07;4.32593;4.33134;
7.28e-07;4.26481;4.33129;
8.28e-07;3.42907;4.33062;
9.28e-07;0.0587145;4.32703;
1.00824e-06;8.80373;4.32715;
1.07e-06;12.1113;4.3324;
1.10356e-06;10.5298;4.33565;
1.11844e-06;11.2883;4.33701;
1.12843e-06;11.4279;4.33798;
1.13593e-06;11.3248;4.33871;
1.13982e-06;11.397;4.33909;
1.14235e-06;11.3612;4.33934;
1.14442e-06;11.3715;4.33954;
1.14598e-06;11.3737;4.33969;
1.14726e-06;11.3684;4.33981;
1.14849e-06;11.3727;4.33993;
1.14973e-06;11.3699;4.34006;
1.15125e-06;11.3719;4.3402;
1.1532e-06;11.3704;4.34039;
1.15563e-06;11.3718;4.34063;
1.15911e-06;11.3705;4.34097;
1.164e-06;11.3718;4.34145;
1.17095e-06;11.3706;4.34212;
1.181e-06;11.3718;4.3431;
1.19694e-06;11.3706;4.34466;
1.22468e-06;11.3719;4.34736;
1.27265e-06;11.3707;4.35203;
1.36858e-06;11.372;4.36137;
1.46858e-06;11.3709;4.37108;
1.56858e-06;11.3722;4.38078;
1.66858e-06;11.3712;4.39047;
1.76858e-06;11.3725;4.40015;
1.85418e-06;11.3714;4.40842;
1.9409e-06;11.3726;4.41679;
2.0409e-06;11.3716;4.42643;
2.13505e-06;11.3728;4.4355;
2.23505e-06;11.3718;4.44511;
2.33505e-06;11.3731;4.45471;
2.43505e-06;11.372;4.4643;
2.53505e-06;11.3733;4.47387;
2.63505e-06;11.3722;4.48344;
2.73505e-06;11.3735;4.49298;
2.83505e-06;11.3724;4.50252;
2.93505e-06;11.3737;4.51204;
3.03505e-06;11.3726;4.52155;
3.13505e-06;11.3739;4.53105;
3.23505e-06;11.3728;4.54053;
3.33505e-06;11.3741;4.55;
3.43505e-06;11.373;4.55946;
3.53505e-06;11.3743;4.5689;
3.63505e-06;11.3732;4.57834;
3.73505e-06;11.3745;4.58775;
3.83505e-06;11.3735;4.59716;
3.93505e-06;11.3747;4.60655;
4.03505e-06;11.3737;4.61593;
4.13505e-06;11.3749;4.6253;
4.23505e-06;11.3739;4.63465;
4.33505e-06;11.3752;4.64399;
4.43505e-06;11.3741;4.65332;
4.53505e-06;11.3754;4.66264;
4.63505e-06;11.3743;4.67194;
4.73505e-06;11.3756;4.68123;
4.83505e-06;11.3745;4.69051;
4.93505e-06;11.3758;4.69977;
5.03505e-06;11.3747;4.70903;
5.13505e-06;11.376;4.71827;
5.23505e-06;11.3749;4.72749;
5.33505e-06;11.3762;4.73671;
5.43505e-06;11.3751;4.74591;
5.53505e-06;11.3764;4.7551;
5.63505e-06;11.3753;4.76427;
5.73505e-06;11.3766;4.77344;
5.83505e-06;11.3755;4.78259;
5.93505e-06;11.3768;4.79173;
6.03505e-06;11.3757;4.80085;
6.13505e-06;11.377;4.80997;
6.23505e-06;11.376;4.81907;
6.33505e-06;11.3772;4.82816;
6.43505e-06;11.3762;4.83723;
6.53505e-06;11.3774;4.8463;
6.63505e-06;11.3764;4.85535;
6.73505e-06;11.3776;4.86439;
6.83505e-06;11.3766;4.87341;
6.93505e-06;11.3778;4.88243;
7.03505e-06;11.3768;4.89143;
7.13505e-06;11.378;4.90042;
7.23505e-06;11.377;4.90939;
7.33505e-06;11.3782;4.91836;
7.43505e-06;11.3772;4.92731;
7.53505e-06;11.3784;4.93625;
7.63505e-06;11.3774;4.94518;
7.73505e-06;11.3787;4.9541;
7.83505e-06;11.3776;4.963;
7.93505e-06;11.3789;4.97189;
8.03505e-06;11.3778;4.98077;
8.13505e-06;11.3791;4.98964;
8.23505e-06;11.378;4.99849;
8.33505e-06;11.3793;5.00733;
8.43505e-06;11.3782;5.01617;
8.53505e-06;11.3795;5.02498;
8.63505e-06;11.3784;5.03379;
8.73505e-06;11.3797;5.04258;
8.83505e-06;11.3786;5.05137;
8.93505e-06;11.3799;5.06014;
9.03505e-06;11.3788;5.0689;
9.13505e-06;11.3801;5.07764;
9.23505e-06;11.379;5.08638;
9.33505e-06;11.3803;5.0951;
9.43505e-06;11.3792;5.10381;
9.53505e-06;11.3805;5.11251;
9.63505e-06;11.3794;5.12119;
9.73505e-06;11.3807;5.12987;
9.83505e-06;11.3796;5.13853;
9.93505e-06;11.3809;5.14718;
1.00351e-05;11.3798;5.15582;
1.01351e-05;11.3811;5.16445;
1.02351e-05;11.38;5.17306;
1.03351e-05;11.3813;5.18167;
1.04351e-05;11.3802;5.19026;
1.05351e-05;11.3815;5.19884;
1.06351e-05;11.3804;5.20741;
1.07351e-05;11.3817;5.21596;
1.08351e-05;11.3806;5.22451;
1.09351e-05;11.3819;5.23304;
1.10351e-05;11.3808;5.24156;
1.11351e-05;11.3821;5.25007;
1.12351e-05;11.381;5.25857;
1.13351e-05;11.3823;5.26706;
1.14351e-05;11.3812;5.27553;
1.15351e-05;11.3825;5.28399;
1.16351e-05;11.3814;5.29245;
1.17351e-05;11.3827;5.30089;
1.18351e-05;11.3816;5.30931;
1.19351e-05;11.3829;5.31773;
1.20351e-05;11.3818;5.32614;
1.21351e-05;11.383;5.33453;
1.22351e-05;11.382;5.34291;
1.23351e-05;11.3832;5.35128;
1.24351e-05;11.3822;5.35964;
1.25351e-05;11.3834;5.36799;
1.26351e-05;11.3824;5.37633;
1.27351e-05;11.3836;5.38465;
1.28351e-05;11.3826;5.39297;
1.29351e-05;11.3838;5.40127;
1.30351e-05;11.3827;5.40956;
1.31351e-05;11.384;5.41784;
1.32351e-05;11.3829;5.42611;
1.33351e-05;11.3842;5.43437;
1.34351e-05;11.3831;5.44261;
1.35351e-05;11.3844;5.45085;
1.36351e-05;11.3833;5.45907;
1.37351e-05;11.3846;5.46728;
1.38351e-05;11.3835;5.47548;
1.39351e-05;11.3848;5.48367;
1.40351e-05;11.3837;5.49185;
1.41351e-05;11.385;5.50001;
1.42351e-05;11.3839;5.50817;
1.43351e-05;11.3852;5.51632;
1.44351e-05;11.3841;5.52445;
1.45351e-05;11.3854;5.53257;
1.46351e-05;11.3843;5.54068;
1.47351e-05;11.3856;5.54878;
1.48351e-05;11.3845;5.55687;
1.49351e-05;11.3858;5.56495;
1.50351e-05;11.3847;5.57302;
1.51351e-05;11.386;5.58107;
1.52351e-05;11.3849;5.58912;
1.53351e-05;11.3862;5.59715;
1.54351e-05;11.3851;5.60517;
1.55351e-05;11.3863;5.61318;
1.56351e-05;11.3852;5.62118;
1.57351e-05;11.3865;5.62917;
1.58351e-05;11.3854;5.63715;
1.59351e-05;11.3867;5.64512;
1.60351e-05;11.3856;5.65308;
1.61351e-05;11.3869;5.66102;
1.62351e-05;11.3858;5.66896;
1.63351e-05;11.3871;5.67688;
1.64351e-05;11.386;5.6848;
1.65351e-05;11.3873;5.6927;
1.66351e-05;11.3862;5.70059;
1.67351e-05;11.3875;5.70847;
1.68351e-05;11.3864;5.71634;
1.69351e-05;11.3877;5.7242;
1.70351e-05;11.3866;5.73205;
1.71351e-05;11.3879;5.73989;
1.72351e-05;11.3868;5.74772;
1.73351e-05;11.3881;5.75553;
1.74351e-05;11.3869;5.76334;
1.75351e-05;11.3882;5.77113;
1.76351e-05;11.3871;5.77892;
1.77351e-05;11.3884;5.78669;
1.78351e-05;11.3873;5.79446;
1.79351e-05;11.3886;5.80221;
1.80351e-05;11.3875;5.80995;
1.81351e-05;11.3888;5.81768;
1.82351e-05;11.3877;5.8254;
1.83351e-05;11.389;5.83311;
1.84351e-05;11.3879;5.84081;
1.85351e-05;11.3892;5.8485;
1.86351e-05;11.3881;5.85618;
1.87351e-05;11.3894;5.86385;
1.88351e-05;11.3882;5.8715;
1.89351e-05;11.3896;5.87915;
1.90351e-05;11.3884;5.88679;
1.91351e-05;11.3897;5.89441;
1.92351e-05;11.3886;5.90203;
1.93351e-05;11.3899;5.90963;
1.94351e-05;11.3888;5.91723;
1.95351e-05;11.3901;5.92481;
1.96351e-05;11.389;5.93239;
1.97351e-05;11.3903;5.93995;
1.98351e-05;11.3892;5.9475;
1.99351e-05;11.3905;5.95505;
2.00351e-05;11.3894;5.96258;
2.01351e-05;11.3907;5.9701;
2.02351e-05;11.3895;5.97761;
2.03351e-05;11.3909;5.98512;
2.04351e-05;11.3897;5.99261;
2.05351e-05;11.391;6.00009;
2.06351e-05;11.3899;6.00756;
2.07351e-05;11.3912;6.01502;
2.08351e-05;11.3901;6.02247;
2.09351e-05;11.3914;6.02991;
2.10351e-05;11.3903;6.03734;
2.11351e-05;11.3916;6.04476;
2.12351e-05;11.3904;6.05217;
2.13351e-05;11.3918;6.05957;
2.14351e-05;11.3906;6.06696;
2.15351e-05;11.392;6.07434;
2.16351e-05;11.3908;6.08171;
2.17351e-05;11.3921;6.08907;
2.18351e-05;11.391;6.09642;
2.19351e-05;11.3923;6.10376;
2.20351e-05;11.3912;6.11109;
2.21351e-05;11.3925;6.11841;
2.22351e-05;11.3914;6.12571;
2.23351e-05;11.3927;6.13301;
2.24351e-05;11.3915;6.1403;
2.25351e-05;11.3929;6.14758;
2.26351e-05;11.3917;6.15485;
2.27351e-05;11.3931;6.16211;
2.28351e-05;11.3919;6.16936;
2.29351e-05;11.3932;6.1766;
2.30351e-05;11.3921;6.18383;
2.31351e-05;11.3934;6.19105;
2.32351e-05;11.3922;6.19826;
2.33351e-05;11.3936;6.20546;
2.34351e-05;11.3924;6.21265;
2.35351e-05;11.3938;6.21983;
2.36351e-05;11.3926;6.227;
2.37351e-05;11.394;6.23416;
2.38351e-05;11.3928;6.24131;
2.39351e-05;11.3941;6.24845;
2.40351e-05;11.393;6.25558;
2.41351e-05;11.3943;6.2627;
2.42351e-05;11.3931;6.26981;
2.43351e-05;11.3945;6.27691;
2.44351e-05;11.3933;6.28401;
2.45351e-05;11.3947;6.29109;
2.46351e-05;11.3935;6.29816;
2.47351e-05;11.3949;6.30522;
2.48351e-05;11.3937;6.31228;
2.49351e-05;11.395;6.31932;
2.50351e-05;11.3938;6.32635;
2.51351e-05;11.3952;6.33338;
2.52351e-05;11.394;6.34039;
2.53351e-05;11.3954;6.3474;
2.54351e-05;11.3942;6.35439;
2.55351e-05;11.3956;6.36138;
2.56351e-05;11.3944;6.36836;
2.57351e-05;11.3957;6.37532;
2.58351e-05;11.3946;6.38228;
2.59351e-05;11.3959;6.38923;
2.60351e-05;11.3947;6.39617;
2.61351e-05;11.3961;6.4031;
2.62351e-05;11.3949;6.41002;
2.63351e-05;11.3963;6.41693;
2.64351e-05;11.3951;6.42383;
2.65351e-05;11.3965;6.43072;
2.66351e-05;11.3953;6.4376;
2.67351e-05;11.3966;6.44447;
2.68351e-05;11.3954;6.45133;
2.69351e-05;11.3968;6.45819;
2.70351e-05;11.3956;6.46503;
2.71351e-05;11.397;6.47187;
2.72351e-05;11.3958;6.47869;
2.73351e-05;11.3972;6.48551;
2.74351e-05;11.3959;6.49231;
2.75351e-05;11.3973;6.49911;
2.76351e-05;11.3961;6.5059;
2.77351e-05;11.3975;6.51268;
2.78351e-05;11.3963;6.51945;
2.79351e-05;11.3977;6.52621;
2.80351e-05;11.3965;6.53296;
2.81351e-05;11.3979;6.5397;
2.82351e-05;11.3966;6.54643;
2.83351e-05;11.398;6.55316;
2.84351e-05;11.3968;6.55987;
2.85351e-05;11.3982;6.56657;
2.86351e-05;11.397;6.57327;
2.87351e-05;11.3984;6.57996;
2.88351e-05;11.3972;6.58663;
2.89351e-05;11.3986;6.5933;
2.90351e-05;11.3973;6.59996;
2.91351e-05;11.3987;6.60661;
2.92351e-05;11.3975;6.61325;
2.93351e-05;11.3989;6.61988;
2.94351e-05;11.3977;6.62651;
2.95351e-05;11.3991;6.63312;
2.96351e-05;11.3978;6.63973;
2.97351e-05;11.3992;6.64632;
2.98351e-05;11.398;6.65291;
2.99351e-05;11.3994;6.65948;
3.00351e-05;11.3982;6.66605;
3.01351e-05;11.3996;6.67261;
3.02351e-05;11.3984;6.67916;
3.03351e-05;11.3998;6.68571;
3.04351e-05;11.3985;6.69224;
3.05351e-05;11.3999;6.69876;
3.06351e-05;11.3987;6.70528;
3.07351e-05;11.4001;6.71178;
3.08351e-05;11.3989;6.71828;
3.09351e-05;11.4003;6.72477;
3.10351e-05;11.399;6.73125;
3.11351e-05;11.4004;6.73772;
3.12351e-05;11.3992;6.74418;
3.13351e-05;11.4006;6.75063;
3.14351e-05;11.3994;6.75708;
3.15351e-05;11.4008;6.76351;
3.16351e-05;11.3995;6.76994;
3.17351e-05;11.401;6.77636;
3.18351e-05;11.3997;6.78276;
3.19351e-05;11.4011;6.78916;
3.20351e-05;11.3999;6.79555;
3.21351e-05;11.4013;6.80194;
3.22351e-05;11.4;6.80831;
3.23351e-05;11.4015;6.81468;
3.24351e-05;11.4002;6.82103;
3.25351e-05;11.4016;6.82738;
3.26351e-05;11.4004;6.83372;
3.27351e-05;11.4018;6.84005;
3.28351e-05;11.4005;6.84637;
3.29351e-05;11.402;6.85268;
3.30351e-05;11.4007;6.85899;
3.31351e-05;11.4021;6.86528;
3.32351e-05;11.4009;6.87157;
3.33351e-05;11.4023;6.87785;
3.34351e-05;11.401;6.88412;
3.35351e-05;11.4025;6.89038;
3.36351e-05;11.4012;6.89663;
3.37351e-05;11.4026;6.90288;
3.38351e-05;11.4014;6.90911;
3.39351e-05;11.4028;6.91534;
3.40351e-05;11.4015;6.92156;
3.41351e-05;11.403;6.92777;
3.42351e-05;11.4017;6.93397;
3.43351e-05;11.4032;6.94016;
3.44351e-05;11.4019;6.94635;
3.45351e-05;11.4033;6.95253;
3.46351e-05;11.402;6.95869;
3.47351e-05;11.4035;6.96485;
3.48351e-05;11.4022;6.971;
3.49351e-05;11.4037;6.97715;
3.50351e-05;11.4024;6.98328;
3.51351e-05;11.4038;6.98941;
3.52351e-05;11.4025;6.99552;
3.53351e-05;11.404;7.00163;
3.54351e-05;11.4027;7.00773;
3.55351e-05;11.4042;7.01383;
3.56351e-05;11.4028;7.01991;
3.57351e-05;11.4043;7.02599;
3.58351e-05;11.403;7.03205;
3.59351e-05;11.4045;7.03811;
3.60351e-05;11.4032;7.04416;
3.61351e-05;11.4046;7.05021;
3.62351e-05;11.4033;7.05624;
3.63351e-05;11.4048;7.06227;
3.64351e-05;11.4035;7.06828;
3.65351e-05;11.405;7.07429;
3.66351e-05;11.4037;7.08029;
3.67351e-05;11.4051;7.08629;
3.68351e-05;11.4038;7.09227;
3.69351e-05;11.4053;7.09825;
3.70351e-05;11.404;7.10422;
3.71351e-05;11.4055;7.11018;
3.72351e-05;11.4041;7.11613;
3.73351e-05;11.4056;7.12207;
3.74351e-05;11.4043;7.12801;
3.75351e-05;11.4058;7.13394;
3.76351e-05;11.4045;7.13986;
3.77351e-05;11.406;7.14577;
3.78351e-05;11.4046;7.15167;
3.79351e-05;11.4061;7.15757;
3.80351e-05;11.4048;7.16346;
3.81351e-05;11.4063;7.16934;
3.82351e-05;11.405;7.17521;
3.83351e-05;11.4064;7.18107;
3.84351e-05;11.4051;7.18693;
3.85351e-05;11.4066;7.19277;
3.86351e-05;11.4053;7.19861;
3.87351e-05;11.4068;7.20444;
3.88351e-05;11.4054;7.21027;
3.89351e-05;11.4069;7.21608;
3.90351e-05;11.4056;7.22189;
3.91351e-05;11.4071;7.22769;
3.92351e-05;11.4058;7.23348;
3.93351e-05;11.4073;7.23927;
3.94351e-05;11.4059;7.24504;
3.95351e-05;11.4074;7.25081;
3.96351e-05;11.4061;7.25657;
3.97351e-05;11.4076;7.26232;
3.98351e-05;11.4062;7.26807;
3.99351e-05;11.4077;7.2738;
4.00351e-05;11.4064;7.27953;
4.01351e-05;11.4079;7.28525;
4.02351e-05;11.4065;7.29096;
4.03351e-05;11.4081;7.29667;
4.04351e-05;11.4067;7.30237;
4.05351e-05;11.4082;7.30806;
4.06351e-05;11.4069;7.31374;
4.07351e-05;11.4084;7.31941;
4.08351e-05;11.407;7.32508;
4.09351e-05;11.4085;7.33074;
4.10351e-05;11.4072;7.33639;
4.11351e-05;11.4087;7.34203;
4.12351e-05;11.4073;7.34767;
4.13351e-05;11.4089;7.35329;
4.14351e-05;11.4075;7.35891;
4.15351e-05;11.409;7.36453;
4.16351e-05;11.4076;7.37013;
4.17351e-05;11.4092;7.37573;
4.18351e-05;11.4078;7.38132;
4.19351e-05;11.4093;7.3869;
4.20351e-05;11.408;7.39247;
4.21351e-05;11.4095;7.39804;
4.22351e-05;11.4081;7.4036;
4.23351e-05;11.4097;7.40915;
4.24351e-05;11.4083;7.41469;
4.25351e-05;11.4098;7.42023;
4.26351e-05;11.4084;7.42576;
4.27351e-05;11.41;7.43128;
4.28351e-05;11.4086;7.43679;
4.29351e-05;11.4101;7.4423;
4.30351e-05;11.4087;7.4478;
4.31351e-05;11.4103;7.45329;
4.32351e-05;11.4089;7.45877;
4.33351e-05;11.4104;7.46425;
4.34351e-05;11.409;7.46972;
4.35351e-05;11.4106;7.47518;
4.36351e-05;11.4092;7.48063;
4.37351e-05;11.4108;7.48608;
4.38351e-05;11.4094;7.49151;
4.39351e-05;11.4109;7.49695;
4.40351e-05;11.4095;7.50237;
4.41351e-05;11.4111;7.50779;
4.42351e-05;11.4097;7.51319;
4.43351e-05;11.4112;7.5186;
4.44351e-05;11.4098;7.52399;
4.45351e-05;11.4114;7.52938;
4.46351e-05;11.41;7.53476;
4.47351e-05;11.4115;7.54013;
4.48351e-05;11.4101;7.54549;
4.49351e-05;11.4117;7.55085;
4.50351e-05;11.4103;7.5562;
4.51351e-05;11.4119;7.56154;
4.52351e-05;11.4104;7.56688;
4.53351e-05;11.412;7.57221;
4.54351e-05;11.4106;7.57753;
4.55351e-05;11.4122;7.58284;
4.56351e-05;11.4107;7.58815;
4.57351e-05;11.4123;7.59345;
4.58351e-05;11.4109;7.59874;
4.59351e-05;11.4125;7.60402;
4.60351e-05;11.411;7.6093;
4.61351e-05;11.4126;7.61457;
4.62351e-05;11.4112;7.61983;
4.63351e-05;11.4128;7.62509;
4.64351e-05;11.4113;7.63034;
4.65351e-05;11.4129;7.63558;
4.66351e-05;11.4115;7.64081;
4.67351e-05;11.4131;7.64604;
4.68351e-05;11.4117;7.65126;
4.69351e-05;11.4133;7.65647;
4.70351e-05;11.4118;7.66168;
4.71351e-05;11.4134;7.66688;
4.72351e-05;11.412;7.67207;
4.73351e-05;11.4136;7.67726;
4.74351e-05;11.4121;7.68243;
4.75351e-05;11.4137;7.6876;
4.76351e-05;11.4123;7.69277;
4.77351e-05;11.4139;7.69792;
4.78351e-05;11.4124;7.70307;
4.79351e-05;11.414;7.70821;
4.80351e-05;11.4126;7.71335;
4.81351e-05;11.4142;7.71848;
4.82351e-05;11.4127;7.7236;
4.83351e-05;11.4143;7.72871;
4.84351e-05;11.4129;7.73382;
4.85351e-05;11.4145;7.73892;
4.86351e-05;11.413;7.74401;
4.87351e-05;11.4146;7.7491;
4.88351e-05;11.4132;7.75418;
4.89351e-05;11.4148;7.75925;
4.90351e-05;11.4133;7.76432;
4.91351e-05;11.4149;7.76938;
4.92351e-05;11.4135;7.77443;
4.93351e-05;11.4151;7.77947;
4.94351e-05;11.4136;7.78451;
4.95351e-05;11.4152;7.78954;
4.96351e-05;11.4138;7.79456;
4.97351e-05;11.4154;7.79958;
4.98351e-05;11.4139;7.80459;
4.99351e-05;11.4155;7.8096;
5.00351e-05;11.414;7.81459;
5.01351e-05;11.4157;7.81958;
5.02351e-05;11.4142;7.82457;
5.03351e-05;11.4158;7.82954;
5.04351e-05;11.4143;7.83451;
5.05351e-05;11.416;7.83947;
5.06351e-05;11.4145;7.84443;
5.07351e-05;11.4161;7.84938;
5.08351e-05;11.4146;7.85432;
5.09351e-05;11.4163;7.85926;
5.10351e-05;11.4148;7.86419;
5.11351e-05;11.4164;7.86911;
5.12351e-05;11.4149;7.87402;
5.13351e-05;11.4166;7.87893;
5.14351e-05;11.4151;7.88383;
5.15351e-05;11.4167;7.88873;
5.16351e-05;11.4152;7.89362;
5.17351e-05;11.4169;7.8985;
5.18351e-05;11.4154;7.90338;
5.19351e-05;11.417;7.90825;
5.20351e-05;11.4155;7.91311;
5.21351e-05;11.4172;7.91796;
5.22351e-05;11.4157;7.92281;
5.23351e-05;11.4173;7.92765;
5.24351e-05;11.4158;7.93249;
5.25351e-05;11.4175;7.93732;
5.26351e-05;11.416;7.94214;
5.27351e-05;11.4176;7.94696;
5.28351e-05;11.4161;7.95177;
5.29351e-05;11.4178;7.95657;
5.30351e-05;11.4163;7.96136;
5.31351e-05;11.4179;7.96615;
5.32351e-05;11.4164;7.97094;
5.33351e-05;11.4181;7.97571;
5.34351e-05;11.4165;7.98048;
5.35351e-05;11.4182;7.98525;
5.36351e-05;11.4167;7.99;
5.37351e-05;11.4184;7.99475;
5.38351e-05;11.4168;7.9995;
5.39351e-05;11.4185;8.00424;
5.40351e-05;11.417;8.00897;
5.41351e-05;11.4187;8.01369;
5.42351e-05;11.4171;8.01841;
5.43351e-05;11.4188;8.02312;
5.44351e-05;11.4173;8.02783;
5.45351e-05;11.419;8.03253;
5.46351e-05;11.4174;8.03722;
5.47351e-05;11.4191;8.0419;
5.48351e-05;11.4176;8.04658;
5.49351e-05;11.4193;8.05126;
5.50351e-05;11.4177;8.05592;
5.51351e-05;11.4194;8.06058;
5.52351e-05;11.4178;8.06524;
5.53351e-05;11.4196;8.06989;
5.54351e-05;11.418;8.07453;
5.55351e-05;11.4197;8.07916;
5.56351e-05;11.4181;8.08379;
5.57351e-05;11.4198;8.08841;
5.58351e-05;11.4183;8.09303;
5.59351e-05;11.42;8.09764;
5.60351e-05;11.4184;8.10224;
5.61351e-05;11.4201;8.10684;
5.62351e-05;11.4186;8.11143;
5.63351e-05;11.4203;8.11602;
5.64351e-05;11.4187;8.1206;
5.65351e-05;11.4204;8.12517;
5.66351e-05;11.4188;8.12973;
5.67351e-05;11.4206;8.13429;
5.68351e-05;11.419;8.13885;
5.69351e-05;11.4207;8.14339;
5.70351e-05;11.4191;8.14794;
5.71351e-05;11.4209;8.15247;
5.72351e-05;11.4193;8.157;
5.73351e-05;11.421;8.16152;
5.74351e-05;11.4194;8.16604;
5.75351e-05;11.4211;8.17055;
5.76351e-05;11.4196;8.17505;
5.77351e-05;11.4213;8.17955;
5.78351e-05;11.4197;8.18404;
5.79351e-05;11.4214;8.18853;
5.80351e-05;11.4198;8.19301;
5.81351e-05;11.4216;8.19748;
5.82351e-05;11.42;8.20195;
5.83351e-05;11.4217;8.20641;
5.84351e-05;11.4201;8.21087;
5.85351e-05;11.4219;8.21532;
5.86351e-05;11.4203;8.21976;
5.87351e-05;11.422;8.2242;
5.88351e-05;11.4204;8.22863;
5.89351e-05;11.4222;8.23305;
5.90351e-05;11.4205;8.23747;
5.91351e-05;11.4223;8.24188;
5.92351e-05;11.4207;8.24629;
5.93351e-05;11.4224;8.25069;
5.94351e-05;11.4208;8.25509;
5.95351e-05;11.4226;8.25947;
5.96351e-05;11.421;8.26386;
5.97351e-05;11.4227;8.26823;
5.98351e-05;11.4211;8.27261;
5.99351e-05;11.4229;8.27697;
6.00351e-05;11.4212;8.28133;
6.01351e-05;11.423;8.28568;
6.02351e-05;11.4214;8.29003;
6.03351e-05;11.4232;8.29437;
6.04351e-05;11.4215;8.29871;
6.05351e-05;11.4233;8.30304;
6.06351e-05;11.4217;8.30736;
6.07351e-05;11.4234;8.31168;
6.08351e-05;11.4218;8.31599;
6.09351e-05;11.4236;8.32029;
6.10351e-05;11.4219;8.32459;
6.11351e-05;11.4237;8.32889;
6.12351e-05;11.4221;8.33318;
6.13351e-05;11.4239;8.33746;
6.14351e-05;11.4222;8.34174;
6.15351e-05;11.424;8.34601;
6.16351e-05;11.4223;8.35027;
6.17351e-05;11.4241;8.35453;
6.18351e-05;11.4225;8.35878;
6.19351e-05;11.4243;8.36303;
6.20351e-05;11.4226;8.36727;
6.21351e-05;11.4244;8.37151;
6.22351e-05;11.4228;8.37574;
6.23351e-05;11.4246;8.37996;
6.24351e-05;11.4229;8.38418;
6.25351e-05;11.4247;8.38839;
6.26351e-05;11.423;8.3926;
6.27351e-05;11.4248;8.3968;
6.28351e-05;11.4232;8.401;
6.29351e-05;11.425;8.40519;
6.30351e-05;11.4233;8.40937;
6.31351e-05;11.4251;8.41355;
6.32351e-05;11.4234;8.41772;
6.33351e-05;11.4253;8.42189;
6.34351e-05;11.4236;8.42605;
6.35351e-05;11.4254;8.43021;
6.36351e-05;11.4237;8.43436;
6.37351e-05;11.4255;8.4385;
6.38351e-05;11.4239;8.44264;
6.39351e-05;11.4257;8.44677;
6.40351e-05;11.424;8.4509;
6.41351e-05;11.4258;8.45502;
6.42351e-05;11.4241;8.45914;
6.43351e-05;11.426;8.46325;
6.44351e-05;11.4243;8.46736;
6.45351e-05;11.4261;8.47146;
