time;V(Net-_R1-Pad1_);V(U_a);V(U_o);
0;0;0.110364;-9.94434e-05;
1e-07;0.0150796;0.110516;0.028062;
1.00943e-07;0.0152218;0.110517;0.0283301;
1.02829e-07;0.0155063;0.11052;0.0288713;
1.06601e-07;0.0160751;0.110526;0.0299848;
1.14146e-07;0.0172128;0.110539;0.0323404;
1.29234e-07;0.0194881;0.110567;0.0375957;
1.59412e-07;0.0240387;0.110632;0.0504633;
2.19766e-07;0.03314;0.110789;0.0867263;
3.14798e-07;0.0474702;0.111083;0.176887;
4.29894e-07;0.0648262;0.111516;0.352056;
5.72341e-07;0.0863062;0.112203;0.698741;
7.32071e-07;0.110392;0.113212;1.31539;
9.18867e-07;0.138559;0.114725;2.45072;
1.13309e-06;0.17086;0.116558;4.42781;
1.25515e-06;0.189265;0.117161;5.86377;
1.38683e-06;0.209118;0.116753;7.53008;
1.51103e-06;0.227844;0.115668;9.11471;
1.60184e-06;0.241536;0.114785;10.2652;
1.64015e-06;0.247312;0.109715;10.3754;
1.6826e-06;0.253711;0.105438;10.3971;
1.69422e-06;0.255463;0.104872;10.4007;
1.70975e-06;0.257804;0.104415;10.405;
1.72597e-06;0.26025;0.104185;10.4088;
1.7429e-06;0.262802;0.104097;10.4122;
1.76188e-06;0.265664;0.104068;10.4155;
1.78257e-06;0.268783;0.104035;10.4187;
1.80457e-06;0.2721;0.103949;10.4216;
1.83026e-06;0.275973;0.103772;10.4247;
1.86251e-06;0.280834;0.103462;10.428;
1.91436e-06;0.288651;0.102888;10.4324;
1.96662e-06;0.296529;0.102305;10.4361;
2.03071e-06;0.30619;0.101623;10.4399;
2.10696e-06;0.317685;0.100826;10.4436;
2.25947e-06;0.340674;0.0992245;10.4494;
2.41001e-06;0.363365;0.0976446;10.4537;
2.71108e-06;0.408742;0.094492;10.4597;
3.31322e-06;0.499477;0.0881858;10.4671;
4.10079e-06;0.618111;0.0799382;10.4718;
5.21346e-06;0.785609;0.0682835;10.4746;
6.37319e-06;0.960028;0.0561355;10.4757;
7.94899e-06;1.19669;0.0396277;10.4764;
9.81805e-06;1.47677;0.0200475;10.4766;
1.26631e-05;1.9015;-0.00975735;10.4767;
1.66365e-05;2.4905;-0.0513835;10.4767;
2.42252e-05;3.59691;-0.130883;10.4767;
3.42252e-05;5.0034;-0.235642;10.4767;
4.42252e-05;6.33097;-0.340401;10.4767;
5.42252e-05;7.5587;-0.445158;10.4767;
6.42252e-05;8.66723;-0.549914;10.4767;
7.42252e-05;9.63907;-0.654669;10.4767;
8.42252e-05;10.4589;-0.759423;10.4767;
9.42252e-05;11.1138;-0.864176;10.4767;
0.000104225;11.5934;-0.968928;10.4767;
0.000114225;11.8902;-1.07368;10.4767;
0.000124225;11.9994;-1.17843;10.4767;
0.000134225;11.9195;-1.28318;10.4767;
0.000144225;11.6515;-1.38793;10.4767;
0.000154225;11.1998;-1.49267;10.4767;
0.000164225;10.5715;-1.59742;10.4767;
0.000174225;9.77642;-1.70216;10.4767;
0.000184225;8.82719;-1.80691;10.4767;
0.000194225;7.73875;-1.91165;10.4767;
0.000204225;6.52826;-2.01639;10.4767;
0.000214225;5.21482;-2.12113;10.4767;
0.000224225;3.81914;-2.22587;10.4767;
0.000234225;2.36323;-2.33061;10.4767;
0.000244225;0.870053;-2.43535;10.4767;
0.000251012;-0.152617;-2.50643;10.4767;
0.000254297;-0.647668;-2.54083;10.4743;
0.000256076;-0.915374;-2.55946;10.469;
0.000257486;-1.12713;-2.57421;10.4595;
0.000258787;-1.32232;-2.58781;10.4417;
0.000259289;-1.39757;-2.59306;10.4281;
0.000259611;-1.44578;-2.59643;10.4128;
0.000259797;-1.47368;-2.5984;10.3963;
0.000259908;-1.49019;-2.59961;10.3772;
0.000259974;-1.50003;-2.60043;10.3519;
0.000260014;-1.50604;-2.60124;10.3059;
0.000260039;-1.5098;-2.60243;10.219;
0.00026007;-1.51454;-2.60398;10.0711;
0.000260087;-1.51699;-2.60458;9.9898;
0.000260108;-1.52009;-2.60516;9.88208;
0.000260129;-1.52336;-2.60563;9.76252;
0.000260165;-1.5287;-2.60627;9.55282;
0.000260205;-1.53466;-2.60696;9.29624;
0.000260245;-1.54068;-2.60773;9.01226;
0.000260296;-1.54834;-2.60877;8.61267;
0.000260386;-1.56179;-2.61063;7.80189;
0.000260517;-1.58135;-2.6131;6.38703;
0.000260644;-1.60024;-2.61472;4.83228;
0.000260774;-1.6197;-2.61542;3.16606;
0.000260891;-1.63718;-2.6157;1.66621;
0.000261028;-1.65767;-2.61593;-0.0925151;
0.000261174;-1.67942;-2.61588;-1.96258;
0.000261465;-1.72291;-2.61495;-5.70862;
0.000261605;-1.74387;-2.61412;-7.51761;
0.000261715;-1.76026;-2.61328;-8.93417;
0.000261776;-1.76934;-2.61276;-9.71996;
0.000261812;-1.77468;-2.61242;-10.181;
0.000261834;-1.77791;-2.61061;-10.3446;
0.000261855;-1.78104;-2.60739;-10.3736;
0.000261877;-1.78433;-2.60469;-10.3879;
0.00026189;-1.78629;-2.60356;-10.3939;
0.000261907;-1.78886;-2.60255;-10.3999;
0.000261923;-1.79127;-2.60201;-10.4045;
0.000261946;-1.79472;-2.60164;-10.4099;
0.000261965;-1.79746;-2.60153;-10.4135;
0.000261984;-1.80032;-2.60148;-10.4167;
0.000262006;-1.80362;-2.60142;-10.42;
0.000262029;-1.80706;-2.60129;-10.4229;
0.000262058;-1.8113;-2.60106;-10.4261;
0.000262094;-1.81666;-2.60069;-10.4296;
0.000262155;-1.82582;-2.60001;-10.4345;
0.000262221;-1.83563;-2.59929;-10.4388;
0.000262288;-1.84571;-2.59858;-10.4423;
0.000262398;-1.86198;-2.59744;-10.447;
0.000262567;-1.88712;-2.59566;-10.4525;
0.000262807;-1.92288;-2.59315;-10.458;
0.000263287;-1.99435;-2.58812;-10.465;
0.000264248;-2.13706;-2.57805;-10.4724;
0.000265177;-2.27479;-2.56832;-10.4748;
0.000266453;-2.46344;-2.55495;-10.476;
0.000267781;-2.65902;-2.54103;-10.4767;
0.000269789;-2.95338;-2.51999;-10.477;
0.000272201;-3.30463;-2.49471;-10.4771;
0.000276282;-3.89151;-2.45195;-10.4772;
0.00028243;-4.7561;-2.38752;-10.4773;
0.00029243;-6.09942;-2.28273;-10.4775;
0.00030243;-7.34655;-2.17794;-10.4776;
0.00031243;-8.47783;-2.07314;-10.4777;
0.00032243;-9.4754;-1.96835;-10.4778;
0.00033243;-10.3235;-1.86356;-10.4779;
0.00034243;-11.0089;-1.75877;-10.478;
0.00035243;-11.5206;-1.65398;-10.4767;
0.00036243;-11.8506;-1.54922;-10.4724;
0.000367953;-11.953;-1.49139;-10.47;
0.000374893;-12;-1.41872;-10.4688;
0.000383762;-11.9273;-1.32587;-10.4697;
0.000393762;-11.668;-1.22114;-10.4736;
0.000402079;-11.3119;-1.13401;-10.4773;
0.000408227;-10.9691;-1.06959;-10.4782;
0.000414849;-10.5267;-1.0002;-10.4779;
0.000421319;-10.024;-0.932405;-10.478;
0.000430415;-9.20614;-0.837093;-10.4778;
0.000440415;-8.16883;-0.732312;-10.4777;
0.000450415;-7.00269;-0.627534;-10.4776;
0.000460415;-5.72612;-0.522758;-10.4775;
0.000470415;-4.35924;-0.417985;-10.4773;
0.000480415;-2.92361;-0.313213;-10.4772;
0.000490415;-1.44188;-0.208445;-10.477;
0.000500415;0.062592;-0.10368;-10.4768;
0.000501665;0.25107;-0.0905843;-10.4768;
0.000503729;0.562048;-0.0689669;-10.4758;
0.000505189;0.781876;-0.0536726;-10.4728;
0.000506762;1.01852;-0.0371949;-10.4653;
0.000508014;1.20645;-0.0241003;-10.4545;
0.00050938;1.41118;-0.00982592;-10.4253;
0.000509919;1.49186;-0.00414033;-10.3754;
0.000510137;1.52447;0.00163172;-9.64668;
0.000510307;1.54993;0.00547934;-8.41566;
0.000510402;1.56411;0.00706453;-7.52382;
0.000510481;1.57593;0.00866355;-6.66518;
0.000510563;1.58825;0.0100123;-5.68063;
0.000510655;1.60195;0.0108953;-4.52568;
0.000510752;1.61639;0.011321;-3.29378;
0.000510864;1.63312;0.0116325;-1.86705;
0.000510985;1.65123;0.0118628;-0.322379;
0.000511161;1.67748;0.0118218;1.9164;
0.000511451;1.72076;0.0109029;5.61051;
0.0005116;1.74298;0.0100187;7.50752;
0.000511706;1.75892;0.00920478;8.86844;
0.000511766;1.76788;0.00868585;9.63361;
0.000511803;1.77336;0.00834546;10.1017;
0.000511826;1.7768;0.00721671;10.3299;
0.000511845;1.77964;0.00432865;10.3664;
0.000511868;1.78304;0.00129406;10.3842;
0.000511878;1.78458;0.000252669;10.3895;
0.000511892;1.78666;-0.000811555;10.3953;
0.000511909;1.78908;-0.00162979;10.4007;
0.000511932;1.79255;-0.00224032;10.4069;
0.000511948;1.79496;-0.00241196;10.4104;
0.000511965;1.79745;-0.00249126;10.4135;
0.000511985;1.80045;-0.00254619;10.4169;
0.000512007;1.80375;-0.00262399;10.4201;
0.000512031;1.80739;-0.00276868;10.4231;
0.00051206;1.81169;-0.00301547;10.4263;
0.0005121;1.81755;-0.00342791;10.43;
0.000512155;1.82586;-0.00405058;10.4344;
0.000512222;1.83583;-0.00477443;10.4386;
0.00051229;1.84594;-0.00548535;10.4422;
0.000512417;1.86478;-0.00681105;10.4475;
0.00051258;1.88909;-0.00852621;10.4525;
0.00051287;1.93227;-0.0115636;10.4588;
0.00051344;2.01715;-0.0175399;10.4664;
0.000514383;2.15712;-0.0274104;10.4725;
0.000515373;2.30375;-0.0377772;10.4746;
0.000516637;2.49059;-0.051022;10.4757;
0.000518069;2.70139;-0.0660226;10.4763;
0.000520106;2.99975;-0.0873601;10.4766;
0.000522735;3.38192;-0.114904;10.4767;
0.000526997;3.99346;-0.159555;10.4767;
0.000533982;4.97008;-0.232729;10.4767;
0.000543982;6.29983;-0.337487;10.4767;
0.000553982;7.53022;-0.442245;10.4767;
0.000563982;8.64186;-0.547001;10.4767;
0.000573982;9.61721;-0.651756;10.4767;
0.000583982;10.4409;-0.75651;10.4767;
0.000593982;11.0999;-0.861264;10.4767;
0.000603982;11.5839;-0.966015;10.4767;
0.000613982;11.8852;-1.07077;10.4767;
0.000623982;11.999;-1.17552;10.4767;
0.000633982;11.9236;-1.28027;10.4767;
0.000643982;11.6602;-1.38501;10.4767;
0.000653982;11.2129;-1.48976;10.4767;
0.000663982;10.5887;-1.59451;10.4767;
0.000673982;9.79761;-1.69925;10.4767;
0.000683982;8.85196;-1.80399;10.4767;
0.000693982;7.7667;-1.90874;10.4767;
0.000703982;6.55897;-2.01348;10.4767;
0.000713982;5.24779;-2.11822;10.4767;
0.000723982;3.85385;-2.22296;10.4767;
0.000733982;2.39913;-2.3277;10.4767;
0.000743982;0.906581;-2.43243;10.4767;
0.000751587;-0.239245;-2.51208;10.4767;
0.000755002;-0.753726;-2.54784;10.4726;
0.000756921;-1.04229;-2.56793;10.464;
0.000758126;-1.22328;-2.58054;10.4524;
0.000759493;-1.42805;-2.59481;10.4202;
0.000760009;-1.50532;-2.60041;10.2993;
0.000760219;-1.53676;-2.60825;9.1218;
0.00076031;-1.55033;-2.60881;8.41225;
0.000760385;-1.56158;-2.61;7.71358;
0.000760421;-1.56691;-2.61091;7.34927;
0.000760462;-1.57307;-2.61182;6.90127;
0.000760509;-1.58014;-2.61268;6.35608;
0.00076058;-1.59073;-2.61369;5.49004;
0.000760722;-1.61189;-2.61479;3.6873;
0.00076083;-1.6281;-2.61508;2.29572;
0.000760963;-1.64798;-2.61535;0.590615;
0.000761093;-1.66742;-2.61543;-1.07986;
0.000761324;-1.70189;-2.61497;-4.04653;
0.000761559;-1.73698;-2.61384;-7.07299;
0.000761683;-1.75541;-2.61294;-8.66466;
0.000761756;-1.76626;-2.61232;-9.60322;
0.000761798;-1.77257;-2.61194;-10.1494;
0.000761823;-1.77624;-2.61005;-10.3456;
0.000761845;-1.77952;-2.60671;-10.3747;
0.000761868;-1.78299;-2.60394;-10.3892;
0.000761881;-1.78491;-2.60289;-10.3948;
0.000761898;-1.78749;-2.60194;-10.4007;
0.000761914;-1.7899;-2.60144;-10.4051;
0.000761935;-1.79308;-2.60112;-10.41;
0.000761954;-1.79582;-2.60102;-10.4136;
0.000761973;-1.79873;-2.60097;-10.4169;
0.000761995;-1.80201;-2.6009;-10.4201;
0.000762019;-1.8055;-2.60077;-10.4231;
0.000762047;-1.80973;-2.60054;-10.4263;
0.000762084;-1.81518;-2.60016;-10.4298;
0.000762144;-1.82415;-2.59949;-10.4346;
0.00076221;-1.83401;-2.59877;-10.4388;
0.000762277;-1.84407;-2.59806;-10.4424;
0.000762389;-1.86072;-2.59689;-10.4471;
0.000762558;-1.88583;-2.59512;-10.4525;
0.000762805;-1.92258;-2.59253;-10.4581;
0.000763298;-1.99601;-2.58736;-10.4653;
0.000764285;-2.14264;-2.57702;-10.4716;
0.000765211;-2.27984;-2.56733;-10.4745;
0.000766506;-2.4713;-2.55375;-10.4761;
0.000767837;-2.66732;-2.53981;-10.4767;
0.000769889;-2.96811;-2.5183;-10.477;
0.000772327;-3.3228;-2.49276;-10.4772;
0.000776524;-3.92611;-2.44878;-10.4772;
0.00078282;-4.81002;-2.3828;-10.4773;
0.00079282;-6.14998;-2.27801;-10.4775;
0.00080282;-7.39295;-2.17322;-10.4776;
0.00081282;-8.51933;-2.06842;-10.4777;
0.00082282;-9.51136;-1.96363;-10.4778;
0.00083282;-10.3534;-1.85884;-10.4779;
0.00084282;-11.0321;-1.75405;-10.478;
0.00085282;-11.5369;-1.64926;-10.4766;
0.00086282;-11.8597;-1.54451;-10.4722;
0.000868438;-11.9592;-1.48567;-10.4698;
0.000875444;-11.9998;-1.41232;-10.4688;
0.000884808;-11.909;-1.31428;-10.47;
0.000894808;-11.6302;-1.20955;-10.4742;
0.000902336;-11.2989;-1.13068;-10.4774;
0.000908702;-10.9398;-1.06398;-10.4782;
0.000915375;-10.4883;-0.994052;-10.4779;
0.000921653;-9.99618;-0.928269;-10.4779;
0.000931358;-9.11432;-0.826581;-10.4778;
0.000941358;-8.06413;-0.721803;-10.4777;
0.000951358;-6.88677;-0.617023;-10.4776;
0.000961358;-5.6008;-0.512249;-10.4775;
0.000971358;-4.2265;-0.407474;-10.4773;
0.000981358;-2.78555;-0.302705;-10.4771;
0.000991358;-1.30067;-0.197935;-10.477;
0.00100136;0.204724;-0.0931716;-10.4768;
0.00100261;0.393159;-0.0800756;-10.4767;
0.00100415;0.625639;-0.0639096;-10.4754;
0.00100602;0.906448;-0.0443664;-10.4696;
0.00100718;1.08094;-0.032212;-10.4625;
0.00100867;1.30492;-0.0166017;-10.4442;
0.00100886;1.33352;-0.0146069;-10.4402;
0.00100924;1.39071;-0.0106152;-10.43;
0.00100979;1.47204;-0.00492316;-10.3983;
0.00100994;1.49558;-0.00316708;-10.367;
0.00101002;1.50751;-0.00172867;-10.2846;
0.00101006;1.51296;0.000178073;-10.1294;
0.0010101;1.51904;0.00177138;-9.92743;
0.00101012;1.52181;0.00223463;-9.82844;
0.00101014;1.52564;0.00273227;-9.68436;
0.00101018;1.5303;0.00325971;-9.49579;
0.00101021;1.53607;0.0039305;-9.243;
0.00101025;1.54189;0.0046773;-8.96374;
0.00101031;1.55019;0.00581502;-8.52266;
0.00101041;1.56594;0.00797472;-7.54194;
0.00101053;1.58294;0.0100632;-6.2826;
0.00101065;1.60131;0.0115652;-4.76698;
0.00101078;1.62041;0.0122032;-3.13851;
0.00101089;1.63754;0.0124787;-1.6779;
0.00101103;1.65823;0.0127044;0.0868752;
0.00101118;1.68054;0.0126329;1.99017;
0.00101147;1.72376;0.0116912;5.67921;
0.00101162;1.74586;0.0108054;7.5655;
0.00101172;1.76136;0.0100082;8.88945;
0.00101178;1.77011;0.00950067;9.63665;
0.00101182;1.77555;0.00916264;10.1017;
0.00101184;1.77898;0.00805044;10.3294;
0.00101186;1.7818;0.00517622;10.3662;
0.00101188;1.7852;0.00213799;10.3841;
0.00101189;1.78674;0.00109252;10.3895;
0.00101191;1.78882;2.00563e-05;10.3952;
0.00101192;1.79124;-0.000804406;10.4007;
0.00101195;1.79471;-0.00141897;10.4068;
0.00101196;1.79712;-0.00159337;10.4103;
0.00101198;1.79961;-0.00167329;10.4135;
0.001012;1.8026;-0.00172809;10.4168;
0.00101202;1.80589;-0.00180528;10.42;
0.00101205;1.80953;-0.00194867;10.4231;
0.00101207;1.81382;-0.00219394;10.4263;
0.00101211;1.81964;-0.00260304;10.4299;
0.00101217;1.82799;-0.00322867;10.4343;
0.00101224;1.83796;-0.00395291;10.4386;
0.0010123;1.84805;-0.00466263;10.4422;
0.00101243;1.86667;-0.00597257;10.4474;
0.00101259;1.8911;-0.00769586;10.4525;
0.00101288;1.93354;-0.0106818;10.4587;
0.00101345;2.01836;-0.0166536;10.4663;
0.0010144;2.15898;-0.0265709;10.4725;
0.00101538;2.30515;-0.0369051;10.4746;
0.00101665;2.49215;-0.0501612;10.4757;
0.00101807;2.70226;-0.0651133;10.4763;
0.00102011;3.00089;-0.0864707;10.4766;
0.00102273;3.3819;-0.113931;10.4767;
0.001027;3.99336;-0.158576;10.4767;
0.00103395;4.96593;-0.231441;10.4767;
0.00104395;6.29594;-0.336199;10.4767;
0.00105395;7.52667;-0.440957;10.4767;
0.00106395;8.63869;-0.545712;10.4767;
0.00107395;9.61448;-0.650468;10.4767;
0.00108395;10.4386;-0.755222;10.4767;
0.00109395;11.0982;-0.859975;10.4767;
0.00110395;11.5827;-0.964727;10.4767;
0.00111395;11.8845;-1.06948;10.4767;
0.00112395;11.999;-1.17423;10.4767;
0.00113395;11.9241;-1.27898;10.4767;
0.00114395;11.6613;-1.38372;10.4767;
0.00115395;11.2145;-1.48847;10.4767;
0.00116395;10.5909;-1.59322;10.4767;
0.00117395;9.80024;-1.69796;10.4767;
0.00118395;8.85504;-1.80271;10.4767;
0.00119395;7.77018;-1.90745;10.4767;
0.00120395;6.56279;-2.01219;10.4767;
0.00121395;5.25189;-2.11693;10.4767;
0.00122395;3.85817;-2.22167;10.4767;
0.00123395;2.4036;-2.32641;10.4767;
0.00124395;0.91113;-2.43114;10.4767;
0.00125167;-0.252409;-2.51202;10.4767;
0.00125511;-0.769677;-2.54798;10.4723;
0.00125706;-1.06393;-2.56846;10.4629;
0.00125826;-1.24379;-2.58099;10.4506;
0.00125957;-1.4396;-2.59464;10.4162;
0.00125994;-1.49491;-2.5986;10.3678;
0.00126011;-1.52061;-2.60351;9.81592;
0.00126024;-1.53948;-2.60657;9.00549;
0.0012603;-1.54927;-2.6076;8.48747;
0.00126036;-1.55828;-2.60881;7.94573;
0.00126043;-1.5677;-2.61013;7.31198;
0.0012605;-1.57873;-2.61152;6.48892;
0.00126059;-1.59191;-2.61281;5.41611;
0.00126072;-1.61179;-2.61383;3.72071;
0.00126083;-1.6279;-2.61412;2.33814;
0.00126096;-1.64793;-2.6144;0.620064;
0.00126109;-1.6665;-2.61449;-0.976268;
0.00126134;-1.70364;-2.61399;-4.17239;
0.00126156;-1.73776;-2.61287;-7.11569;
0.00126169;-1.75614;-2.61198;-8.70286;
0.00126176;-1.76691;-2.61136;-9.63473;
0.0012618;-1.77319;-2.61097;-10.1772;
0.00126183;-1.77683;-2.60879;-10.3498;
0.00126185;-1.78026;-2.60535;-10.3774;
0.00126187;-1.78337;-2.60294;-10.3896;
0.00126188;-1.78533;-2.60189;-10.3951;
0.0012619;-1.78784;-2.60099;-10.4008;
0.00126192;-1.79041;-2.60046;-10.4055;
0.00126194;-1.79339;-2.60018;-10.4101;
0.00126196;-1.79605;-2.60008;-10.4135;
0.00126197;-1.79896;-2.60003;-10.4168;
0.001262;-1.80225;-2.59996;-10.42;
0.00126202;-1.80575;-2.59983;-10.423;
0.00126205;-1.80996;-2.5996;-10.4262;
0.00126209;-1.8154;-2.59922;-10.4297;
0.00126215;-1.82455;-2.59854;-10.4346;
0.00126221;-1.83438;-2.59782;-10.4389;
0.00126228;-1.84453;-2.59711;-10.4424;
0.00126239;-1.86109;-2.59594;-10.4472;
0.00126256;-1.88608;-2.59418;-10.4525;
0.00126281;-1.92296;-2.59158;-10.4582;
0.0012633;-1.99666;-2.58639;-10.4653;
0.00126429;-2.14382;-2.57602;-10.4717;
0.00126522;-2.28092;-2.56633;-10.4745;
0.00126652;-2.47274;-2.55273;-10.4761;
0.00126785;-2.66877;-2.53878;-10.4767;
0.0012699;-2.97039;-2.51722;-10.477;
0.00127235;-3.32544;-2.49165;-10.4772;
0.00127656;-3.93086;-2.4475;-10.4772;
0.00128287;-4.81701;-2.38135;-10.4773;
0.00129287;-6.15653;-2.27656;-10.4775;
0.00130287;-7.39896;-2.17177;-10.4776;
0.00131287;-8.5247;-2.06697;-10.4777;
0.00132287;-9.51601;-1.96218;-10.4778;
0.00133287;-10.3572;-1.85738;-10.4779;
0.00134287;-11.0351;-1.75259;-10.478;
0.00135287;-11.539;-1.64781;-10.4766;
0.00136287;-11.8609;-1.54305;-10.4722;
0.0013685;-11.96;-1.48408;-10.4698;
0.00137552;-11.9997;-1.41063;-10.4688;
0.00138495;-11.9063;-1.31184;-10.47;
0.00139495;-11.6248;-1.20711;-10.4742;
0.00140239;-11.2962;-1.12919;-10.4774;
0.00140882;-10.9327;-1.06186;-10.4782;
0.00141552;-10.4776;-0.991603;-10.4779;
0.00142179;-9.98472;-0.925908;-10.4779;
0.00143163;-9.0878;-0.822831;-10.4778;
0.00144163;-8.03396;-0.718052;-10.4777;
0.00145163;-6.85342;-0.613273;-10.4776;
0.00146163;-5.56479;-0.508499;-10.4775;
0.00147163;-4.1884;-0.403724;-10.4773;
0.00148163;-2.74596;-0.298955;-10.4771;
0.00149163;-1.26022;-0.194186;-10.477;
0.00150163;0.2454;-0.0894221;-10.4768;
0.00150431;0.650039;-0.0612898;-10.4746;
0.00150638;0.960986;-0.0396481;-10.4676;
0.00150759;1.14331;-0.0269446;-10.459;
0.00150891;1.34038;-0.0132077;-10.4392;
0.00150938;1.4109;-0.0082834;-10.4249;
0.00150968;1.45684;-0.00506588;-10.4076;
0.00150986;1.48334;-0.00317445;-10.3873;
0.00150997;1.49904;-0.00194927;-10.3569;
0.00151003;1.50849;-0.000486309;-10.2618;
0.00151006;1.51333;0.001221;-10.1174;
0.0015101;1.51872;0.0026156;-9.93824;
0.00151012;1.52172;0.00312795;-9.8315;
0.00151014;1.52535;0.00360941;-9.6951;
0.00151017;1.53014;0.00415945;-9.5025;
0.00151021;1.53602;0.00484808;-9.24483;
0.00151025;1.54196;0.00561059;-8.95994;
0.00151031;1.55026;0.00674713;-8.51878;
0.00151041;1.56569;0.00886455;-7.55848;
0.00151053;1.58332;0.0110252;-6.2525;
0.00151065;1.60194;0.0125223;-4.71394;
0.00151078;1.62112;0.0131389;-3.07812;
0.0015109;1.63856;0.0134154;-1.59146;
0.00151104;1.65925;0.0136317;0.173532;
0.00151119;1.68221;0.0135377;2.13287;
0.00151147;1.72321;0.0126334;5.63146;
0.00151161;1.74427;0.0118011;7.42993;
0.00151173;1.7618;0.010906;8.92692;
0.00151179;1.77145;0.0103419;9.75069;
0.00151183;1.77711;0.00996562;10.2331;
0.00151185;1.78041;0.00752867;10.3532;
0.00151187;1.78397;0.00405424;10.379;
0.00151189;1.78655;0.00212434;10.3888;
0.00151191;1.78858;0.0010448;10.3947;
0.00151192;1.79102;0.000175591;10.4002;
0.00151194;1.79384;-0.000387388;10.4054;
0.00151196;1.79664;-0.000643359;10.4097;
0.00151198;1.79921;-0.000740032;10.413;
0.001512;1.80212;-0.000795929;10.4163;
0.00151202;1.80542;-0.000868453;10.4196;
0.00151204;1.80894;-0.000998117;10.4226;
0.00151207;1.81315;-0.00122868;10.4258;
0.00151211;1.81858;-0.00160291;10.4293;
0.00151218;1.82883;-0.00236735;10.4348;
0.00151224;1.83812;-0.00304283;10.4387;
0.00151231;1.84906;-0.00381101;10.4425;
